time,V(lpf_3rd_10mhz),V(lpf_3rd_50mhz)
0,-0.001710952,-0.001710952
9.36229E-13,-0.001710952,-0.001710952
1.87246E-12,-0.001710952,-0.001710952
2.80869E-12,-0.001710952,-0.001710952
3.74491E-12,-0.001710952,-0.001710952
4.68114E-12,-0.001710952,-0.001710952
5.61737E-12,-0.001710952,-0.001710952
6.5536E-12,-0.001710952,-0.001710952
1.31072E-11,-0.001710952,-0.001710952
2.31072E-11,-0.001710952,-0.001710952
3.31072E-11,-0.001710952,-0.001710951
4.31072E-11,-0.001710952,-0.00171095
5.31072E-11,-0.001710952,-0.001710948
6.31072E-11,-0.001710951,-0.001710945
7.31072E-11,-0.00171095,-0.001710941
8.31072E-11,-0.001710949,-0.001710935
1.03107E-10,-0.001710946,-0.001710921
1.23107E-10,-0.001710942,-0.001710901
1.53107E-10,-0.001710934,-0.001710858
1.83107E-10,-0.001710922,-0.001710802
2.13107E-10,-0.001710908,-0.001710729
2.43107E-10,-0.00171089,-0.001710639
2.73107E-10,-0.001710868,-0.001710532
3.03107E-10,-0.001710843,-0.001710407
3.33107E-10,-0.001710814,-0.001710263
3.63107E-10,-0.001710782,-0.001710099
3.93107E-10,-0.001710745,-0.001709916
4.23107E-10,-0.001710704,-0.001709714
4.53107E-10,-0.00171066,-0.001709492
4.83107E-10,-0.001710612,-0.001709251
5.13107E-10,-0.00171056,-0.001708992
5.43107E-10,-0.001710504,-0.001708715
5.73107E-10,-0.001710445,-0.001708422
6.03107E-10,-0.001710383,-0.001708113
6.33107E-10,-0.001710319,-0.001707791
6.63107E-10,-0.001710252,-0.001707457
6.93107E-10,-0.001710182,-0.001707113
7.23107E-10,-0.001710112,-0.001706762
7.53107E-10,-0.00171004,-0.001706406
7.83107E-10,-0.001709968,-0.001706049
8.13107E-10,-0.001709896,-0.001705693
8.43107E-10,-0.001709825,-0.001705343
8.73107E-10,-0.001709756,-0.001705002
9.03107E-10,-0.00170969,-0.001704674
9.33107E-10,-0.001709627,-0.001704364
9.63107E-10,-0.001709568,-0.001704077
9.93107E-10,-0.001709515,-0.001703818
1.03596E-09,-0.001709441,-0.001703457
1.07882E-09,-0.001709393,-0.00170323
1.12168E-09,-0.001709372,-0.001703136
1.16454E-09,-0.001709377,-0.001703176
1.20739E-09,-0.001709408,-0.00170335
1.25025E-09,-0.001709466,-0.001703657
1.29311E-09,-0.001709551,-0.001704097
1.34025E-09,-0.001709686,-0.001704797
1.38739E-09,-0.001709896,-0.001705866
1.43454E-09,-0.001710179,-0.001707305
1.48168E-09,-0.001710536,-0.001709113
1.52882E-09,-0.001710966,-0.001711291
1.57596E-09,-0.001711471,-0.001713839
1.62311E-09,-0.001712049,-0.001716756
1.67739E-09,-0.001712832,-0.001720704
1.73168E-09,-0.001713782,-0.001725476
1.78596E-09,-0.001714898,-0.001731075
1.84025E-09,-0.00171618,-0.001737498
1.89454E-09,-0.001717628,-0.001744747
1.94882E-09,-0.001719243,-0.001752822
2.00311E-09,-0.001721025,-0.001761722
2.02311E-09,-0.001721739,-0.001765287
2.03311E-09,-0.001722106,-0.00176712
2.04311E-09,-0.001722481,-0.001768987
2.05311E-09,-0.001722862,-0.001770887
2.07311E-09,-0.001723645,-0.001774791
2.09311E-09,-0.001724457,-0.001778833
2.12311E-09,-0.001725727,-0.001785159
2.17311E-09,-0.001727986,-0.0017964
2.22311E-09,-0.001730432,-0.001808557
2.27311E-09,-0.001733068,-0.001821627
2.32311E-09,-0.001735891,-0.001835613
2.37311E-09,-0.001738903,-0.001850512
2.42311E-09,-0.001742103,-0.001866326
2.47311E-09,-0.001745491,-0.001883055
2.51596E-09,-0.001748555,-0.001898161
2.55882E-09,-0.001751743,-0.001913847
2.60168E-09,-0.001755054,-0.001930111
2.64454E-09,-0.001758489,-0.001946955
2.68739E-09,-0.001762048,-0.001964377
2.73025E-09,-0.001765729,-0.001982379
2.77311E-09,-0.001769535,-0.00200096
2.80311E-09,-0.001772251,-0.002014193
2.83311E-09,-0.001775014,-0.002027637
2.86311E-09,-0.001777822,-0.002041277
2.89311E-09,-0.00178067,-0.002055093
2.92311E-09,-0.001783556,-0.002069068
2.96596E-09,-0.001787772,-0.002089458
3.00882E-09,-0.00179201,-0.002109882
3.05168E-09,-0.00179627,-0.00213034
3.09454E-09,-0.00180055,-0.002150832
3.13739E-09,-0.001804853,-0.002171359
3.18025E-09,-0.001809176,-0.002191919
3.22311E-09,-0.001813521,-0.002212513
3.28596E-09,-0.001819955,-0.002242878
3.34882E-09,-0.001826062,-0.002271394
3.41168E-09,-0.001831844,-0.002298062
3.47454E-09,-0.001837299,-0.00232288
3.53739E-09,-0.001842429,-0.002345851
3.60025E-09,-0.001847233,-0.002366972
3.66311E-09,-0.001851711,-0.002386245
3.69596E-09,-0.00185374,-0.002394657
3.72882E-09,-0.001855547,-0.002401886
3.76168E-09,-0.001857132,-0.002407933
3.79454E-09,-0.001858494,-0.002412797
3.82739E-09,-0.001859634,-0.00241648
3.86025E-09,-0.001860551,-0.00241898
3.89311E-09,-0.001861246,-0.002420298
3.95882E-09,-0.001862084,-0.002419942
4.02454E-09,-0.001861305,-0.002411234
4.09025E-09,-0.001858908,-0.002394176
4.15596E-09,-0.001854894,-0.002368765
4.22168E-09,-0.001849261,-0.002335003
4.28739E-09,-0.001842012,-0.00229289
4.35311E-09,-0.001833144,-0.002242426
4.43454E-09,-0.001819524,-0.002166273
4.51596E-09,-0.001801342,-0.002067238
4.59739E-09,-0.001778599,-0.001945321
4.67882E-09,-0.001751293,-0.001800521
4.76025E-09,-0.001719426,-0.001632838
4.84168E-09,-0.001682997,-0.001442273
4.92311E-09,-0.001642007,-0.001228826
4.99882E-09,-0.001598596,-0.001003973
5.07454E-09,-0.001548997,-0.000748967
5.15025E-09,-0.001493209,-0.000463809
5.22596E-09,-0.001431233,-0.000148499
5.30168E-09,-0.001363068,0.000196964
5.37739E-09,-0.001288714,0.00057258
5.45311E-09,-0.001208172,0.000978348
5.55739E-09,-0.001086174,0.001591558
5.66168E-09,-0.000947276,0.002283826
5.76596E-09,-0.000791478,0.003055151
5.87025E-09,-0.000618779,0.003905533
5.97454E-09,-0.000429179,0.004834973
6.07882E-09,-0.000222678,0.00584347
6.18311E-09,7.22612E-07,0.006931025
6.30882E-09,0.000295754,0.0083627
6.43454E-09,0.000624261,0.009940125
6.56025E-09,0.000986243,0.0116633
6.68596E-09,0.001381701,0.01353223
6.81168E-09,0.001810633,0.0155469
6.93739E-09,0.002273041,0.01770733
7.06311E-09,0.002768924,0.0200135
7.19882E-09,0.003347112,0.02268673
7.33454E-09,0.00397348,0.025545
7.47025E-09,0.004648029,0.02858833
7.60596E-09,0.00537076,0.0318167
7.74168E-09,0.006141672,0.03523013
7.87739E-09,0.006960766,0.0388286
8.01311E-09,0.00782804,0.04261213
8.08739E-09,0.008325756,0.04476098
8.16168E-09,0.00883938,0.04696225
8.23596E-09,0.009368913,0.04921591
8.31025E-09,0.009914356,0.05152199
8.38454E-09,0.01047571,0.05388047
8.45882E-09,0.01105297,0.05629135
8.53311E-09,0.01164614,0.05875465
8.61596E-09,0.01232701,0.06156268
8.69882E-09,0.01302851,0.0644282
8.78168E-09,0.01375065,0.06735118
8.86454E-09,0.01449341,0.07033165
8.94739E-09,0.0152568,0.07336958
9.03025E-09,0.01604083,0.07646499
9.11311E-09,0.01684548,0.07961787
9.23168E-09,0.01803343,0.08422906
9.35025E-09,0.01926474,0.08892756
9.46882E-09,0.02053942,0.09371337
9.58739E-09,0.02185746,0.09858649
9.70596E-09,0.02321886,0.1035469
9.82454E-09,0.02462363,0.1085946
9.94311E-09,0.02607177,0.1137297
1.00631E-08,0.027582,0.1189782
1.0186E-08,0.02917461,0.1244342
1.03088E-08,0.03081396,0.1299257
1.04317E-08,0.03250002,0.1354528
1.05545E-08,0.03423282,0.1410155
1.06774E-08,0.03601234,0.1466137
1.08003E-08,0.03783859,0.1522475
1.09231E-08,0.03971156,0.1579169
1.0966E-08,0.04037581,0.1598904
1.10088E-08,0.04104569,0.1618635
1.10517E-08,0.04172121,0.1638361
1.10945E-08,0.04240236,0.1658083
1.11374E-08,0.04308914,0.16778
1.11803E-08,0.04378155,0.1697513
1.12231E-08,0.0444796,0.1717222
1.13674E-08,0.0468716,0.1783742
1.15117E-08,0.04932626,0.1849586
1.1656E-08,0.0518436,0.1914754
1.18003E-08,0.05442361,0.1979248
1.19445E-08,0.05706629,0.2043065
1.20888E-08,0.05977164,0.2106207
1.22331E-08,0.06253966,0.2168673
1.23117E-08,0.06407264,0.220208
1.23903E-08,0.06562365,0.2235072
1.24688E-08,0.06719271,0.2267649
1.25474E-08,0.0687798,0.2299811
1.2626E-08,0.07038494,0.2331558
1.27045E-08,0.07200811,0.2362889
1.27831E-08,0.07364932,0.2393806
1.2896E-08,0.07603817,0.2437422
1.30088E-08,0.07846303,0.2479836
1.31217E-08,0.08092391,0.2521046
1.32345E-08,0.08342082,0.2561054
1.33474E-08,0.08595374,0.2599859
1.34603E-08,0.08852269,0.2637462
1.35731E-08,0.09112766,0.2673862
1.36203E-08,0.09222607,0.2688611
1.36674E-08,0.09333057,0.2703105
1.37145E-08,0.09444116,0.2717345
1.37617E-08,0.09555783,0.273133
1.38088E-08,0.09668059,0.274506
1.3856E-08,0.09780944,0.2758536
1.39031E-08,0.09894437,0.2771758
1.3956E-08,0.1002241,0.2786266
1.40088E-08,0.1015112,0.2800423
1.40617E-08,0.1028059,0.2814231
1.41145E-08,0.104108,0.2827687
1.41674E-08,0.1054176,0.2840793
1.42203E-08,0.1067347,0.2853548
1.42731E-08,0.1080592,0.2865953
1.43445E-08,0.109861,0.2882143
1.4416E-08,0.111676,0.2897633
1.44874E-08,0.1135042,0.2912424
1.45588E-08,0.1153457,0.2926516
1.46303E-08,0.1172004,0.2939908
1.47017E-08,0.1190684,0.2952601
1.47731E-08,0.1209496,0.2964594
1.48474E-08,0.1229199,0.297629
1.49217E-08,0.1249039,0.2987171
1.4996E-08,0.1269016,0.2997237
1.50703E-08,0.1289132,0.3006487
1.51445E-08,0.1309384,0.3014922
1.52188E-08,0.1329774,0.3022543
1.52931E-08,0.1350302,0.3029348
1.53845E-08,0.1375753,0.3036569
1.5476E-08,0.1401401,0.3042491
1.55674E-08,0.1427247,0.3047113
1.56588E-08,0.1453291,0.3050436
1.57503E-08,0.1479533,0.3052459
1.58417E-08,0.1505972,0.3053182
1.59331E-08,0.1532608,0.3052606
1.59931E-08,0.1550191,0.3051501
1.60531E-08,0.1567855,0.3049826
1.61131E-08,0.1585599,0.304758
1.61731E-08,0.1603424,0.3044764
1.62331E-08,0.1621329,0.3041377
1.62931E-08,0.1639315,0.303742
1.63531E-08,0.1657382,0.3032893
1.64317E-08,0.1681161,0.3026094
1.65103E-08,0.1705072,0.3018324
1.65888E-08,0.1729113,0.3009583
1.66674E-08,0.1753285,0.2999869
1.6746E-08,0.1777588,0.2989184
1.68245E-08,0.1802022,0.2977528
1.69031E-08,0.1826586,0.29649
1.69488E-08,0.1840936,0.2957112
1.69945E-08,0.1855327,0.2949004
1.70403E-08,0.186976,0.2940575
1.7086E-08,0.1884236,0.2931825
1.71317E-08,0.1898753,0.2922754
1.71774E-08,0.1913312,0.2913362
1.72231E-08,0.1927914,0.2903649
1.73245E-08,0.1960463,0.2880927
1.7426E-08,0.1993204,0.2856711
1.75274E-08,0.2026138,0.2831001
1.76288E-08,0.2059265,0.2803797
1.77303E-08,0.2092585,0.2775098
1.78317E-08,0.2126097,0.2744905
1.79331E-08,0.2159802,0.2713218
1.80688E-08,0.2205193,0.2668494
1.82045E-08,0.2250888,0.2621481
1.83403E-08,0.2296886,0.2572179
1.8476E-08,0.2343187,0.2520588
1.86117E-08,0.2389792,0.2466706
1.87474E-08,0.2436699,0.2410536
1.88831E-08,0.248391,0.2352076
1.89217E-08,0.2497374,0.2335142
1.89603E-08,0.251086,0.2318053
1.89988E-08,0.2524369,0.2300809
1.90374E-08,0.2537899,0.2283411
1.9076E-08,0.2551451,0.2265859
1.91145E-08,0.2565025,0.2248152
1.91531E-08,0.2578621,0.2230291
1.92674E-08,0.261904,0.2176375
1.93817E-08,0.2659631,0.2121383
1.9496E-08,0.2700396,0.2065314
1.96103E-08,0.2741333,0.2008169
1.97245E-08,0.2782442,0.1949947
1.98388E-08,0.2823725,0.1890649
1.99531E-08,0.286518,0.1830275
1.99874E-08,0.2877644,0.1812037
2.00217E-08,0.2890123,0.1793729
2.0056E-08,0.2902615,0.177535
2.00903E-08,0.2915121,0.1756902
2.01245E-08,0.2927641,0.1738384
2.01588E-08,0.2940174,0.1719796
2.01931E-08,0.2952721,0.1701137
2.03031E-08,0.2993066,0.164087
2.04003E-08,0.3028813,0.1587043
2.04974E-08,0.3064655,0.1532908
2.05945E-08,0.3100593,0.1478465
2.06917E-08,0.3136625,0.1423715
2.07888E-08,0.3172753,0.1368657
2.0886E-08,0.3208975,0.1313292
2.09831E-08,0.3245293,0.1257619
2.10231E-08,0.326027,0.1234686
2.10631E-08,0.3275262,0.1211739
2.11031E-08,0.3290266,0.1188778
2.11431E-08,0.3305285,0.1165802
2.11831E-08,0.3320318,0.1142811
2.12231E-08,0.3335365,0.1119807
2.12631E-08,0.3350425,0.1096787
2.16131E-08,0.3482746,0.08956452
2.17374E-08,0.3529967,0.08243264
2.18617E-08,0.3577282,0.07535725
2.1986E-08,0.3624689,0.06833835
2.21103E-08,0.3672189,0.06137593
2.22345E-08,0.3719781,0.05447
2.23588E-08,0.3767466,0.04762056
2.24831E-08,0.3815244,0.0408276
2.2546E-08,0.3839431,0.03743413
2.26088E-08,0.3863633,0.03406729
2.26717E-08,0.3887852,0.03072709
2.27345E-08,0.3912088,0.02741352
2.27974E-08,0.3936339,0.02412659
2.28603E-08,0.3960607,0.02086629
2.29231E-08,0.3984891,0.01763262
2.29974E-08,0.4013608,0.01384945
2.30717E-08,0.4042341,0.010115
2.3146E-08,0.4071089,0.006429273
2.32203E-08,0.4099851,0.002792272
2.32945E-08,0.4128629,-0.000796005
2.33688E-08,0.4157422,-0.004335559
2.34431E-08,0.418623,-0.007826389
2.35003E-08,0.4208396,-0.01047309
2.35574E-08,0.4230568,-0.013085
2.36145E-08,0.4252743,-0.01566213
2.36717E-08,0.4274924,-0.01820447
2.37288E-08,0.4297109,-0.02071203
2.3786E-08,0.4319298,-0.02318481
2.38431E-08,0.4341493,-0.0256228
2.39231E-08,0.4372571,-0.02897513
2.40031E-08,0.440365,-0.03224862
2.40831E-08,0.4434729,-0.03544328
2.41631E-08,0.4465808,-0.03855911
2.42431E-08,0.4496888,-0.0415961
2.43231E-08,0.4527968,-0.04455426
2.44031E-08,0.4559048,-0.04743358
2.4516E-08,0.460289,-0.05135469
2.46288E-08,0.4646709,-0.05509512
2.47417E-08,0.4690505,-0.05865487
2.48545E-08,0.4734277,-0.06203395
2.49674E-08,0.4778026,-0.06523236
2.50803E-08,0.4821751,-0.06825009
2.51931E-08,0.4865453,-0.07108714
2.52531E-08,0.4888669,-0.0725142
2.53131E-08,0.4911871,-0.07388597
2.53731E-08,0.4935061,-0.07520247
2.54331E-08,0.4958239,-0.07646368
2.54931E-08,0.4981404,-0.0776696
2.55531E-08,0.5004556,-0.07882024
2.56131E-08,0.5027696,-0.0799156
2.57017E-08,0.506183,-0.08142973
2.57903E-08,0.5095926,-0.08281905
2.58788E-08,0.5129983,-0.08408354
2.59674E-08,0.5164001,-0.08522321
2.6056E-08,0.5197981,-0.08623806
2.61445E-08,0.5231923,-0.08712808
2.62331E-08,0.5265826,-0.08789328
2.62831E-08,0.5284943,-0.08826899
2.63331E-08,0.5304045,-0.08860452
2.63831E-08,0.5323131,-0.08889988
2.64331E-08,0.5342201,-0.08915505
2.64831E-08,0.5361256,-0.08937005
2.65331E-08,0.5380296,-0.08954487
2.65831E-08,0.539932,-0.08967952
2.66403E-08,0.5421042,-0.08978405
2.66974E-08,0.544274,-0.08983654
2.67545E-08,0.5464415,-0.08983701
2.68117E-08,0.5486066,-0.08978543
2.68688E-08,0.5507694,-0.08968183
2.6926E-08,0.5529298,-0.08952619
2.69831E-08,0.5550878,-0.08931851
2.70931E-08,0.5592356,-0.08876959
2.72031E-08,0.5633728,-0.08803578
2.73131E-08,0.5674995,-0.08711708
2.74231E-08,0.5716156,-0.08601349
2.75331E-08,0.5757212,-0.08472501
2.76431E-08,0.5798163,-0.08325164
2.77531E-08,0.5839008,-0.08159337
2.78974E-08,0.5892413,-0.07913769
2.80417E-08,0.5945591,-0.07640429
2.8186E-08,0.5998541,-0.07339319
2.83303E-08,0.6051262,-0.07010437
2.84745E-08,0.6103756,-0.06653784
2.86188E-08,0.6156022,-0.06269359
2.87631E-08,0.620806,-0.05857164
2.87874E-08,0.6216791,-0.05785688
2.88117E-08,0.6225515,-0.05713532
2.8836E-08,0.6234231,-0.05640697
2.88603E-08,0.6242941,-0.05567182
2.88845E-08,0.6251642,-0.05492988
2.89088E-08,0.6260337,-0.05418114
2.89331E-08,0.6269024,-0.05342561
2.90374E-08,0.630625,-0.0500962
2.91417E-08,0.6343329,-0.04665984
2.9246E-08,0.6380262,-0.04311653
2.93503E-08,0.6417049,-0.03946627
2.94545E-08,0.6453689,-0.03570906
2.95588E-08,0.6490183,-0.0318449
2.96631E-08,0.6526531,-0.0278738
2.97131E-08,0.65439,-0.0259414
2.97631E-08,0.6561233,-0.02399004
2.98131E-08,0.6578529,-0.0220197
2.98631E-08,0.6595788,-0.0200304
2.99131E-08,0.661301,-0.01802214
2.99631E-08,0.6630195,-0.0159949
3.00131E-08,0.6647344,-0.0139487
3.00874E-08,0.6672754,-0.01087465
3.01617E-08,0.6698077,-0.007769624
3.0236E-08,0.6723313,-0.004633627
3.03103E-08,0.6748463,-0.001466656
3.03845E-08,0.6773526,0.001731287
3.04588E-08,0.6798503,0.004960204
3.05331E-08,0.6823393,0.008220093
3.05431E-08,0.6826737,0.008660171
3.06131E-08,0.6850097,0.01175676
3.06831E-08,0.6873375,0.01486881
3.07531E-08,0.689657,0.01799631
3.08231E-08,0.6919683,0.02113926
3.08931E-08,0.6942713,0.02429766
3.09631E-08,0.6965661,0.02747152
3.10331E-08,0.6988526,0.03066083
3.10945E-08,0.7008521,0.03346675
3.1156E-08,0.7028449,0.03627604
3.12174E-08,0.704831,0.0390887
3.12788E-08,0.7068104,0.04190472
3.13403E-08,0.708783,0.04472411
3.14017E-08,0.7107489,0.04754686
3.14631E-08,0.7127081,0.05037298
3.15588E-08,0.7157473,0.05478105
3.16545E-08,0.7187692,0.05917241
3.17503E-08,0.7217736,0.06354708
3.1846E-08,0.7247607,0.06790505
3.19417E-08,0.7277305,0.07224631
3.20374E-08,0.7306828,0.07657088
3.21331E-08,0.7336178,0.08087875
3.22303E-08,0.7365783,0.08521836
3.23274E-08,0.7395196,0.08951023
3.24245E-08,0.7424417,0.09375435
3.25217E-08,0.7453447,0.09795073
3.26188E-08,0.7482285,0.1020994
3.2716E-08,0.7510932,0.1062002
3.28131E-08,0.7539387,0.1102534
3.29117E-08,0.7568058,0.1143017
3.30103E-08,0.7596519,0.1182713
3.31088E-08,0.7624771,0.1221622
3.32074E-08,0.7652813,0.1259744
3.3306E-08,0.7680645,0.129708
3.34045E-08,0.7708267,0.1333628
3.35031E-08,0.7735679,0.136939
3.35388E-08,0.7745557,0.138209
3.35745E-08,0.7755405,0.1394663
3.36103E-08,0.7765225,0.1407108
3.3646E-08,0.7775017,0.1419426
3.36817E-08,0.778478,0.1431616
3.37174E-08,0.7794514,0.144368
3.37531E-08,0.7804219,0.1455616
3.38188E-08,0.7822002,0.1477246
3.38845E-08,0.7839686,0.1498391
3.39503E-08,0.785727,0.151905
3.4016E-08,0.7874754,0.1539224
3.40817E-08,0.7892139,0.1558912
3.41474E-08,0.7909424,0.1578116
3.42131E-08,0.7926609,0.1596833
3.42988E-08,0.7948873,0.1620482
3.43845E-08,0.7970961,0.1643185
3.44703E-08,0.7992873,0.1664945
3.4556E-08,0.8014609,0.1685759
3.46417E-08,0.8036168,0.170563
3.47274E-08,0.8057552,0.1724556
3.48131E-08,0.8078759,0.1742538
3.49117E-08,0.8102925,0.1761976
3.50103E-08,0.8126849,0.1780022
3.51088E-08,0.8150529,0.1796676
3.52074E-08,0.8173967,0.1811937
3.5306E-08,0.8197161,0.1825807
3.54045E-08,0.8220112,0.1838284
3.55031E-08,0.8242821,0.184937
3.5556E-08,0.8254894,0.18547
3.56088E-08,0.8266895,0.1859608
3.56617E-08,0.8278823,0.1864094
3.57145E-08,0.829068,0.1868158
3.57674E-08,0.8302465,0.18718
3.58203E-08,0.8314177,0.187502
3.58731E-08,0.8325818,0.1877818
3.59674E-08,0.8346402,0.1881747
3.60617E-08,0.836675,0.1884304
3.6156E-08,0.8386862,0.1885489
3.62503E-08,0.8406738,0.1885301
3.63445E-08,0.8426377,0.188374
3.64388E-08,0.844578,0.1880807
3.65331E-08,0.8464947,0.1876502
3.65788E-08,0.8474153,0.1873916
3.66245E-08,0.8483302,0.1871009
3.66703E-08,0.8492394,0.186778
3.6716E-08,0.8501428,0.1864229
3.67617E-08,0.8510406,0.1860356
3.68074E-08,0.8519327,0.1856162
3.68531E-08,0.8528191,0.1851646
3.69588E-08,0.8548472,0.1839946
3.70645E-08,0.8568441,0.182658
3.71703E-08,0.8588097,0.1811548
3.7276E-08,0.8607442,0.179485
3.73817E-08,0.8626474,0.1776486
3.74874E-08,0.8645194,0.1756457
3.75931E-08,0.8663602,0.1734762
3.76945E-08,0.8680966,0.1712419
3.7796E-08,0.8698032,0.1688678
3.78974E-08,0.8714803,0.1663539
3.79988E-08,0.8731277,0.1637003
3.81003E-08,0.8747455,0.1609069
3.82017E-08,0.8763337,0.1579738
3.83031E-08,0.8778923,0.1549008
3.83917E-08,0.8792286,0.1521106
3.84803E-08,0.8805418,0.1492282
3.85688E-08,0.8818318,0.1462536
3.86574E-08,0.8830986,0.1431868
3.8746E-08,0.8843423,0.1400279
3.88345E-08,0.8855629,0.1367768
3.89231E-08,0.8867602,0.1334336
3.8956E-08,0.8871984,0.1321736
3.89888E-08,0.8876334,0.1309024
3.90217E-08,0.8880651,0.1296202
3.90545E-08,0.8884936,0.1283268
3.90874E-08,0.8889188,0.1270224
3.91203E-08,0.8893408,0.1257068
3.91531E-08,0.8897595,0.12438
3.92674E-08,0.8911912,0.119669
3.93817E-08,0.892583,0.1148498
3.9496E-08,0.8939352,0.1099225
3.96103E-08,0.8952476,0.104887
3.97245E-08,0.8965202,0.09974343
3.98388E-08,0.8977531,0.09449167
3.99531E-08,0.8989463,0.08913177
3.99874E-08,0.8992963,0.08751097
4.00217E-08,0.8996427,0.08588307
4.0056E-08,0.8999854,0.08424808
4.00903E-08,0.9003245,0.082606
4.01245E-08,0.90066,0.08095682
4.01588E-08,0.9009919,0.07930054
4.01931E-08,0.9013202,0.07763717
4.0276E-08,0.9020985,0.07358547
4.03588E-08,0.9028553,0.06950537
4.04417E-08,0.9035908,0.06539687
4.05245E-08,0.9043049,0.06125997
4.06074E-08,0.9049975,0.05709468
4.06903E-08,0.9056687,0.052901
4.07731E-08,0.9063185,0.04867891
4.07831E-08,0.9063955,0.04816883
4.08188E-08,0.9066678,0.04634439
4.08545E-08,0.9069361,0.04451727
4.08903E-08,0.9072003,0.04268748
4.0926E-08,0.9074605,0.04085502
4.09617E-08,0.9077167,0.03901987
