time	V(lpf_3rd_10mhz)	V(lpf_3rd_50mhz)
0.000000000000000e+00	-1.710952e-03	-1.710952e-03
9.362285872156170e-13	-1.710952e-03	-1.710952e-03
1.872457174431234e-12	-1.710952e-03	-1.710952e-03
2.808685761646851e-12	-1.710952e-03	-1.710952e-03
3.744914348862468e-12	-1.710952e-03	-1.710952e-03
4.681142936078085e-12	-1.710952e-03	-1.710952e-03
5.617371523293702e-12	-1.710952e-03	-1.710952e-03
6.553600110509317e-12	-1.710952e-03	-1.710952e-03
1.310720022101863e-11	-1.710952e-03	-1.710952e-03
2.310720022101863e-11	-1.710952e-03	-1.710952e-03
3.310720022101863e-11	-1.710952e-03	-1.710951e-03
4.310720022101863e-11	-1.710952e-03	-1.710950e-03
5.310720022101862e-11	-1.710952e-03	-1.710948e-03
6.310720022101863e-11	-1.710951e-03	-1.710945e-03
7.310720022101863e-11	-1.710950e-03	-1.710941e-03
8.310720022101864e-11	-1.710949e-03	-1.710935e-03
1.031072002210186e-10	-1.710946e-03	-1.710921e-03
1.231072002210186e-10	-1.710942e-03	-1.710901e-03
1.531072002210186e-10	-1.710934e-03	-1.710858e-03
1.831072002210186e-10	-1.710922e-03	-1.710802e-03
2.131072002210186e-10	-1.710908e-03	-1.710729e-03
2.431072002210186e-10	-1.710890e-03	-1.710639e-03
2.731072002210186e-10	-1.710868e-03	-1.710532e-03
3.031072002210187e-10	-1.710843e-03	-1.710407e-03
3.331072002210187e-10	-1.710814e-03	-1.710263e-03
3.631072002210188e-10	-1.710782e-03	-1.710099e-03
3.931072002210188e-10	-1.710745e-03	-1.709916e-03
4.231072002210189e-10	-1.710704e-03	-1.709714e-03
4.531072002210189e-10	-1.710660e-03	-1.709492e-03
4.831072002210189e-10	-1.710612e-03	-1.709251e-03
5.131072002210188e-10	-1.710560e-03	-1.708992e-03
5.431072002210187e-10	-1.710504e-03	-1.708715e-03
5.731072002210186e-10	-1.710445e-03	-1.708422e-03
6.031072002210185e-10	-1.710383e-03	-1.708113e-03
6.331072002210184e-10	-1.710319e-03	-1.707791e-03
6.631072002210182e-10	-1.710252e-03	-1.707457e-03
6.931072002210181e-10	-1.710182e-03	-1.707113e-03
7.231072002210180e-10	-1.710112e-03	-1.706762e-03
7.531072002210179e-10	-1.710040e-03	-1.706406e-03
7.831072002210178e-10	-1.709968e-03	-1.706049e-03
8.131072002210177e-10	-1.709896e-03	-1.705693e-03
8.431072002210176e-10	-1.709825e-03	-1.705343e-03
8.731072002210175e-10	-1.709756e-03	-1.705002e-03
9.031072002210174e-10	-1.709690e-03	-1.704674e-03
9.331072002210173e-10	-1.709627e-03	-1.704364e-03
9.631072002210172e-10	-1.709568e-03	-1.704077e-03
9.931072002210171e-10	-1.709515e-03	-1.703818e-03
1.035964343078160e-09	-1.709441e-03	-1.703457e-03
1.078821485935303e-09	-1.709393e-03	-1.703230e-03
1.121678628792445e-09	-1.709372e-03	-1.703136e-03
1.164535771649588e-09	-1.709377e-03	-1.703176e-03
1.207392914506731e-09	-1.709408e-03	-1.703350e-03
1.250250057363874e-09	-1.709466e-03	-1.703657e-03
1.293107200221016e-09	-1.709551e-03	-1.704097e-03
1.340250057363873e-09	-1.709686e-03	-1.704797e-03
1.387392914506730e-09	-1.709896e-03	-1.705866e-03
1.434535771649587e-09	-1.710179e-03	-1.707305e-03
1.481678628792444e-09	-1.710536e-03	-1.709113e-03
1.528821485935301e-09	-1.710966e-03	-1.711291e-03
1.575964343078158e-09	-1.711471e-03	-1.713839e-03
1.623107200221015e-09	-1.712049e-03	-1.716756e-03
1.677392914506729e-09	-1.712832e-03	-1.720704e-03
1.731678628792444e-09	-1.713782e-03	-1.725476e-03
1.785964343078158e-09	-1.714898e-03	-1.731075e-03
1.840250057363873e-09	-1.716180e-03	-1.737498e-03
1.894535771649587e-09	-1.717628e-03	-1.744747e-03
1.948821485935302e-09	-1.719243e-03	-1.752822e-03
2.003107200221017e-09	-1.721025e-03	-1.761722e-03
2.023107200221017e-09	-1.721739e-03	-1.765287e-03
2.033107200221017e-09	-1.722106e-03	-1.767120e-03
2.043107200221017e-09	-1.722481e-03	-1.768987e-03
2.053107200221017e-09	-1.722862e-03	-1.770887e-03
2.073107200221018e-09	-1.723645e-03	-1.774791e-03
2.093107200221018e-09	-1.724457e-03	-1.778833e-03
2.123107200221019e-09	-1.725727e-03	-1.785159e-03
2.173107200221019e-09	-1.727986e-03	-1.796400e-03
2.223107200221020e-09	-1.730432e-03	-1.808557e-03
2.273107200221021e-09	-1.733068e-03	-1.821627e-03
2.323107200221022e-09	-1.735891e-03	-1.835613e-03
2.373107200221023e-09	-1.738903e-03	-1.850512e-03
2.423107200221024e-09	-1.742103e-03	-1.866326e-03
2.473107200221025e-09	-1.745491e-03	-1.883055e-03
2.515964343078168e-09	-1.748555e-03	-1.898161e-03
2.558821485935312e-09	-1.751743e-03	-1.913847e-03
2.601678628792456e-09	-1.755054e-03	-1.930111e-03
2.644535771649599e-09	-1.758489e-03	-1.946955e-03
2.687392914506743e-09	-1.762048e-03	-1.964377e-03
2.730250057363886e-09	-1.765729e-03	-1.982379e-03
2.773107200221030e-09	-1.769535e-03	-2.000960e-03
2.803107200221030e-09	-1.772251e-03	-2.014193e-03
2.833107200221031e-09	-1.775014e-03	-2.027637e-03
2.863107200221031e-09	-1.777822e-03	-2.041277e-03
2.893107200221032e-09	-1.780670e-03	-2.055093e-03
2.923107200221032e-09	-1.783556e-03	-2.069068e-03
2.965964343078176e-09	-1.787772e-03	-2.089458e-03
3.008821485935319e-09	-1.792010e-03	-2.109882e-03
3.051678628792463e-09	-1.796270e-03	-2.130340e-03
3.094535771649607e-09	-1.800550e-03	-2.150832e-03
3.137392914506750e-09	-1.804853e-03	-2.171359e-03
3.180250057363894e-09	-1.809176e-03	-2.191919e-03
3.223107200221038e-09	-1.813521e-03	-2.212513e-03
3.285964343078181e-09	-1.819955e-03	-2.242878e-03
3.348821485935325e-09	-1.826062e-03	-2.271394e-03
3.411678628792470e-09	-1.831844e-03	-2.298062e-03
3.474535771649613e-09	-1.837299e-03	-2.322880e-03
3.537392914506757e-09	-1.842429e-03	-2.345851e-03
3.600250057363901e-09	-1.847233e-03	-2.366972e-03
3.663107200221045e-09	-1.851711e-03	-2.386245e-03
3.695964343078188e-09	-1.853740e-03	-2.394657e-03
3.728821485935330e-09	-1.855547e-03	-2.401886e-03
3.761678628792472e-09	-1.857132e-03	-2.407933e-03
3.794535771649615e-09	-1.858494e-03	-2.412797e-03
3.827392914506757e-09	-1.859634e-03	-2.416480e-03
3.860250057363900e-09	-1.860551e-03	-2.418980e-03
3.893107200221042e-09	-1.861246e-03	-2.420298e-03
3.958821485935327e-09	-1.862084e-03	-2.419942e-03
4.024535771649611e-09	-1.861305e-03	-2.411234e-03
4.090250057363895e-09	-1.858908e-03	-2.394176e-03
4.155964343078179e-09	-1.854894e-03	-2.368765e-03
4.221678628792463e-09	-1.849261e-03	-2.335003e-03
4.287392914506747e-09	-1.842012e-03	-2.292890e-03
4.353107200221031e-09	-1.833144e-03	-2.242426e-03
4.434535771649601e-09	-1.819524e-03	-2.166273e-03
4.515964343078171e-09	-1.801342e-03	-2.067238e-03
4.597392914506740e-09	-1.778599e-03	-1.945321e-03
4.678821485935309e-09	-1.751293e-03	-1.800521e-03
4.760250057363879e-09	-1.719426e-03	-1.632838e-03
4.841678628792448e-09	-1.682997e-03	-1.442273e-03
4.923107200221018e-09	-1.642007e-03	-1.228826e-03
4.998821485935302e-09	-1.598596e-03	-1.003973e-03
5.074535771649586e-09	-1.548997e-03	-7.489674e-04
5.150250057363870e-09	-1.493209e-03	-4.638093e-04
5.225964343078154e-09	-1.431233e-03	-1.484987e-04
5.301678628792437e-09	-1.363068e-03	1.969644e-04
5.377392914506721e-09	-1.288714e-03	5.725800e-04
5.453107200221005e-09	-1.208172e-03	9.783481e-04
5.557392914506716e-09	-1.086174e-03	1.591558e-03
5.661678628792428e-09	-9.472763e-04	2.283826e-03
5.765964343078141e-09	-7.914777e-04	3.055151e-03
5.870250057363852e-09	-6.187786e-04	3.905533e-03
5.974535771649564e-09	-4.291788e-04	4.834973e-03
6.078821485935276e-09	-2.226784e-04	5.843470e-03
6.183107200220987e-09	7.226123e-07	6.931025e-03
6.308821485935270e-09	2.957542e-04	8.362700e-03
6.434535771649553e-09	6.242611e-04	9.940125e-03
6.560250057363836e-09	9.862433e-04	1.166330e-02
6.685964343078118e-09	1.381701e-03	1.353223e-02
6.811678628792400e-09	1.810633e-03	1.554690e-02
6.937392914506684e-09	2.273041e-03	1.770733e-02
7.063107200220966e-09	2.768924e-03	2.001350e-02
7.198821485935249e-09	3.347112e-03	2.268673e-02
7.334535771649531e-09	3.973480e-03	2.554500e-02
7.470250057363813e-09	4.648029e-03	2.858833e-02
7.605964343078096e-09	5.370760e-03	3.181670e-02
7.741678628792378e-09	6.141672e-03	3.523013e-02
7.877392914506661e-09	6.960766e-03	3.882860e-02
8.013107200220943e-09	7.828040e-03	4.261213e-02
8.087392914506656e-09	8.325756e-03	4.476098e-02
8.161678628792368e-09	8.839380e-03	4.696225e-02
8.235964343078081e-09	9.368913e-03	4.921591e-02
8.310250057363793e-09	9.914356e-03	5.152199e-02
8.384535771649506e-09	1.047571e-02	5.388047e-02
8.458821485935217e-09	1.105297e-02	5.629135e-02
8.533107200220930e-09	1.164614e-02	5.875465e-02
8.615964343078072e-09	1.232701e-02	6.156268e-02
8.698821485935211e-09	1.302851e-02	6.442820e-02
8.781678628792353e-09	1.375065e-02	6.735118e-02
8.864535771649494e-09	1.449341e-02	7.033165e-02
8.947392914506635e-09	1.525680e-02	7.336958e-02
9.030250057363775e-09	1.604083e-02	7.646499e-02
9.113107200220916e-09	1.684548e-02	7.961787e-02
9.231678628792342e-09	1.803343e-02	8.422906e-02
9.350250057363767e-09	1.926474e-02	8.892756e-02
9.468821485935195e-09	2.053942e-02	9.371337e-02
9.587392914506620e-09	2.185746e-02	9.858649e-02
9.705964343078046e-09	2.321886e-02	1.035469e-01
9.824535771649471e-09	2.462363e-02	1.085946e-01
9.943107200220896e-09	2.607177e-02	1.137297e-01
1.006310720022089e-08	2.758200e-02	1.189782e-01
1.018596434307803e-08	2.917461e-02	1.244342e-01
1.030882148593517e-08	3.081396e-02	1.299257e-01
1.043167862879231e-08	3.250002e-02	1.354528e-01
1.055453577164945e-08	3.423282e-02	1.410155e-01
1.067739291450659e-08	3.601234e-02	1.466137e-01
1.080025005736373e-08	3.783859e-02	1.522475e-01
1.092310720022087e-08	3.971156e-02	1.579169e-01
1.096596434307802e-08	4.037581e-02	1.598904e-01
1.100882148593516e-08	4.104569e-02	1.618635e-01
1.105167862879230e-08	4.172121e-02	1.638361e-01
1.109453577164944e-08	4.240236e-02	1.658083e-01
1.113739291450658e-08	4.308914e-02	1.677800e-01
1.118025005736372e-08	4.378155e-02	1.697513e-01
1.122310720022087e-08	4.447960e-02	1.717222e-01
1.136739291450658e-08	4.687160e-02	1.783742e-01
1.151167862879229e-08	4.932626e-02	1.849586e-01
1.165596434307800e-08	5.184360e-02	1.914754e-01
1.180025005736371e-08	5.442361e-02	1.979248e-01
1.194453577164942e-08	5.706629e-02	2.043065e-01
1.208882148593513e-08	5.977164e-02	2.106207e-01
1.223310720022084e-08	6.253966e-02	2.168673e-01
1.231167862879227e-08	6.407264e-02	2.202080e-01
1.239025005736369e-08	6.562365e-02	2.235072e-01
1.246882148593512e-08	6.719271e-02	2.267649e-01
1.254739291450655e-08	6.877980e-02	2.299811e-01
1.262596434307798e-08	7.038494e-02	2.331558e-01
1.270453577164940e-08	7.200811e-02	2.362889e-01
1.278310720022083e-08	7.364932e-02	2.393806e-01
1.289596434307797e-08	7.603817e-02	2.437422e-01
1.300882148593511e-08	7.846303e-02	2.479836e-01
1.312167862879225e-08	8.092391e-02	2.521046e-01
1.323453577164939e-08	8.342082e-02	2.561054e-01
1.334739291450653e-08	8.595374e-02	2.599859e-01
1.346025005736367e-08	8.852269e-02	2.637462e-01
1.357310720022081e-08	9.112766e-02	2.673862e-01
1.362025005736366e-08	9.222607e-02	2.688611e-01
1.366739291450652e-08	9.333057e-02	2.703105e-01
1.371453577164938e-08	9.444116e-02	2.717345e-01
1.376167862879223e-08	9.555783e-02	2.731330e-01
1.380882148593509e-08	9.668059e-02	2.745060e-01
1.385596434307795e-08	9.780944e-02	2.758536e-01
1.390310720022080e-08	9.894437e-02	2.771758e-01
1.395596434307794e-08	1.002241e-01	2.786266e-01
1.400882148593508e-08	1.015112e-01	2.800423e-01
1.406167862879223e-08	1.028059e-01	2.814231e-01
1.411453577164937e-08	1.041080e-01	2.827687e-01
1.416739291450651e-08	1.054176e-01	2.840793e-01
1.422025005736365e-08	1.067347e-01	2.853548e-01
1.427310720022079e-08	1.080592e-01	2.865953e-01
1.434453577164936e-08	1.098610e-01	2.882143e-01
1.441596434307793e-08	1.116760e-01	2.897633e-01
1.448739291450650e-08	1.135042e-01	2.912424e-01
1.455882148593507e-08	1.153457e-01	2.926516e-01
1.463025005736364e-08	1.172004e-01	2.939908e-01
1.470167862879221e-08	1.190684e-01	2.952601e-01
1.477310720022078e-08	1.209496e-01	2.964594e-01
1.484739291450650e-08	1.229199e-01	2.976290e-01
1.492167862879222e-08	1.249039e-01	2.987171e-01
1.499596434307795e-08	1.269016e-01	2.997237e-01
1.507025005736367e-08	1.289132e-01	3.006487e-01
1.514453577164939e-08	1.309384e-01	3.014922e-01
1.521882148593511e-08	1.329774e-01	3.022543e-01
1.529310720022083e-08	1.350302e-01	3.029348e-01
1.538453577164942e-08	1.375753e-01	3.036569e-01
1.547596434307800e-08	1.401401e-01	3.042491e-01
1.556739291450658e-08	1.427247e-01	3.047113e-01
1.565882148593517e-08	1.453291e-01	3.050436e-01
1.575025005736375e-08	1.479533e-01	3.052459e-01
1.584167862879234e-08	1.505972e-01	3.053182e-01
1.593310720022092e-08	1.532608e-01	3.052606e-01
1.599310720022093e-08	1.550191e-01	3.051501e-01
1.605310720022094e-08	1.567855e-01	3.049826e-01
1.611310720022095e-08	1.585599e-01	3.047580e-01
1.617310720022096e-08	1.603424e-01	3.044764e-01
1.623310720022096e-08	1.621329e-01	3.041377e-01
1.629310720022097e-08	1.639315e-01	3.037420e-01
1.635310720022098e-08	1.657382e-01	3.032893e-01
1.643167862879242e-08	1.681161e-01	3.026094e-01
1.651025005736386e-08	1.705072e-01	3.018324e-01
1.658882148593530e-08	1.729113e-01	3.009583e-01
1.666739291450674e-08	1.753285e-01	2.999869e-01
1.674596434307818e-08	1.777588e-01	2.989184e-01
1.682453577164962e-08	1.802022e-01	2.977528e-01
1.690310720022106e-08	1.826586e-01	2.964900e-01
1.694882148593535e-08	1.840936e-01	2.957112e-01
1.699453577164964e-08	1.855327e-01	2.949004e-01
1.704025005736394e-08	1.869760e-01	2.940575e-01
1.708596434307823e-08	1.884236e-01	2.931825e-01
1.713167862879252e-08	1.898753e-01	2.922754e-01
1.717739291450681e-08	1.913312e-01	2.913362e-01
1.722310720022110e-08	1.927914e-01	2.903649e-01
1.732453577164969e-08	1.960463e-01	2.880927e-01
1.742596434307828e-08	1.993204e-01	2.856711e-01
1.752739291450686e-08	2.026138e-01	2.831001e-01
1.762882148593545e-08	2.059265e-01	2.803797e-01
1.773025005736403e-08	2.092585e-01	2.775098e-01
1.783167862879262e-08	2.126097e-01	2.744905e-01
1.793310720022120e-08	2.159802e-01	2.713218e-01
1.806882148593551e-08	2.205193e-01	2.668494e-01
1.820453577164981e-08	2.250888e-01	2.621481e-01
1.834025005736412e-08	2.296886e-01	2.572179e-01
1.847596434307842e-08	2.343187e-01	2.520588e-01
1.861167862879273e-08	2.389792e-01	2.466706e-01
1.874739291450703e-08	2.436699e-01	2.410536e-01
1.888310720022134e-08	2.483910e-01	2.352076e-01
1.892167862879277e-08	2.497374e-01	2.335142e-01
1.896025005736421e-08	2.510860e-01	2.318053e-01
1.899882148593564e-08	2.524369e-01	2.300809e-01
1.903739291450708e-08	2.537899e-01	2.283411e-01
1.907596434307851e-08	2.551451e-01	2.265859e-01
1.911453577164994e-08	2.565025e-01	2.248152e-01
1.915310720022138e-08	2.578621e-01	2.230291e-01
1.926739291450711e-08	2.619040e-01	2.176375e-01
1.938167862879284e-08	2.659631e-01	2.121383e-01
1.949596434307857e-08	2.700396e-01	2.065314e-01
1.961025005736430e-08	2.741333e-01	2.008169e-01
1.972453577165003e-08	2.782442e-01	1.949947e-01
1.983882148593576e-08	2.823725e-01	1.890649e-01
1.995310720022149e-08	2.865180e-01	1.830275e-01
1.998739291450721e-08	2.877644e-01	1.812037e-01
2.002167862879293e-08	2.890123e-01	1.793729e-01
2.005596434307865e-08	2.902615e-01	1.775350e-01
2.009025005736437e-08	2.915121e-01	1.756902e-01
2.012453577165009e-08	2.927641e-01	1.738384e-01
2.015882148593581e-08	2.940174e-01	1.719796e-01
2.019310720022152e-08	2.952721e-01	1.701137e-01
2.030310720022154e-08	2.993066e-01	1.640870e-01
2.040025005736441e-08	3.028813e-01	1.587043e-01
2.049739291450728e-08	3.064655e-01	1.532908e-01
2.059453577165015e-08	3.100593e-01	1.478465e-01
2.069167862879302e-08	3.136625e-01	1.423715e-01
2.078882148593589e-08	3.172753e-01	1.368657e-01
2.088596434307877e-08	3.208975e-01	1.313292e-01
2.098310720022164e-08	3.245293e-01	1.257619e-01
2.102310720022164e-08	3.260270e-01	1.234686e-01
2.106310720022165e-08	3.275262e-01	1.211739e-01
2.110310720022165e-08	3.290266e-01	1.188778e-01
2.114310720022166e-08	3.305285e-01	1.165802e-01
2.118310720022166e-08	3.320318e-01	1.142811e-01
2.122310720022167e-08	3.335365e-01	1.119807e-01
2.126310720022168e-08	3.350425e-01	1.096787e-01
2.161310720022172e-08	3.482746e-01	8.956452e-02
2.173739291450746e-08	3.529967e-01	8.243264e-02
2.186167862879319e-08	3.577282e-01	7.535725e-02
2.198596434307892e-08	3.624689e-01	6.833835e-02
2.211025005736465e-08	3.672189e-01	6.137593e-02
2.223453577165038e-08	3.719781e-01	5.447000e-02
2.235882148593612e-08	3.767466e-01	4.762056e-02
2.248310720022185e-08	3.815244e-01	4.082760e-02
2.254596434307900e-08	3.839431e-01	3.743413e-02
2.260882148593615e-08	3.863633e-01	3.406729e-02
2.267167862879330e-08	3.887852e-01	3.072709e-02
2.273453577165045e-08	3.912088e-01	2.741352e-02
2.279739291450761e-08	3.936339e-01	2.412659e-02
2.286025005736476e-08	3.960607e-01	2.086629e-02
2.292310720022191e-08	3.984891e-01	1.763262e-02
2.299739291450763e-08	4.013608e-01	1.384945e-02
2.307167862879336e-08	4.042341e-01	1.011500e-02
2.314596434307908e-08	4.071089e-01	6.429273e-03
2.322025005736481e-08	4.099851e-01	2.792272e-03
2.329453577165053e-08	4.128629e-01	-7.960053e-04
2.336882148593626e-08	4.157422e-01	-4.335559e-03
2.344310720022198e-08	4.186230e-01	-7.826389e-03
2.350025005736485e-08	4.208396e-01	-1.047309e-02
2.355739291450771e-08	4.230568e-01	-1.308500e-02
2.361453577165058e-08	4.252743e-01	-1.566213e-02
2.367167862879344e-08	4.274924e-01	-1.820447e-02
2.372882148593631e-08	4.297109e-01	-2.071203e-02
2.378596434307917e-08	4.319298e-01	-2.318481e-02
2.384310720022204e-08	4.341493e-01	-2.562280e-02
2.392310720022205e-08	4.372571e-01	-2.897513e-02
2.400310720022206e-08	4.403650e-01	-3.224862e-02
2.408310720022207e-08	4.434729e-01	-3.544328e-02
2.416310720022209e-08	4.465808e-01	-3.855911e-02
2.424310720022210e-08	4.496888e-01	-4.159610e-02
2.432310720022211e-08	4.527968e-01	-4.455426e-02
2.440310720022212e-08	4.559048e-01	-4.743358e-02
2.451596434307928e-08	4.602890e-01	-5.135469e-02
2.462882148593644e-08	4.646709e-01	-5.509512e-02
2.474167862879360e-08	4.690505e-01	-5.865487e-02
2.485453577165075e-08	4.734277e-01	-6.203395e-02
2.496739291450791e-08	4.778026e-01	-6.523236e-02
2.508025005736507e-08	4.821751e-01	-6.825009e-02
2.519310720022223e-08	4.865453e-01	-7.108714e-02
2.525310720022224e-08	4.888669e-01	-7.251420e-02
2.531310720022225e-08	4.911871e-01	-7.388597e-02
2.537310720022226e-08	4.935061e-01	-7.520247e-02
2.543310720022226e-08	4.958239e-01	-7.646368e-02
2.549310720022227e-08	4.981404e-01	-7.766960e-02
2.555310720022228e-08	5.004556e-01	-7.882024e-02
2.561310720022229e-08	5.027696e-01	-7.991560e-02
2.570167862879373e-08	5.061830e-01	-8.142973e-02
2.579025005736517e-08	5.095926e-01	-8.281905e-02
2.587882148593661e-08	5.129983e-01	-8.408354e-02
2.596739291450805e-08	5.164001e-01	-8.522321e-02
2.605596434307950e-08	5.197981e-01	-8.623806e-02
2.614453577165094e-08	5.231923e-01	-8.712808e-02
2.623310720022238e-08	5.265826e-01	-8.789328e-02
2.628310720022238e-08	5.284943e-01	-8.826899e-02
2.633310720022239e-08	5.304045e-01	-8.860452e-02
2.638310720022240e-08	5.323131e-01	-8.889988e-02
2.643310720022241e-08	5.342201e-01	-8.915505e-02
2.648310720022241e-08	5.361256e-01	-8.937005e-02
2.653310720022242e-08	5.380296e-01	-8.954487e-02
2.658310720022243e-08	5.399320e-01	-8.967952e-02
2.664025005736529e-08	5.421042e-01	-8.978405e-02
2.669739291450816e-08	5.442740e-01	-8.983654e-02
2.675453577165102e-08	5.464415e-01	-8.983701e-02
2.681167862879389e-08	5.486066e-01	-8.978543e-02
2.686882148593675e-08	5.507694e-01	-8.968183e-02
2.692596434307962e-08	5.529298e-01	-8.952619e-02
2.698310720022248e-08	5.550878e-01	-8.931851e-02
2.709310720022250e-08	5.592356e-01	-8.876959e-02
2.720310720022251e-08	5.633728e-01	-8.803578e-02
2.731310720022253e-08	5.674995e-01	-8.711708e-02
2.742310720022255e-08	5.716156e-01	-8.601349e-02
2.753310720022256e-08	5.757212e-01	-8.472501e-02
2.764310720022258e-08	5.798163e-01	-8.325164e-02
2.775310720022259e-08	5.839008e-01	-8.159337e-02
2.789739291450833e-08	5.892413e-01	-7.913769e-02
2.804167862879406e-08	5.945591e-01	-7.640429e-02
