Freq.	V(ideal_out)	V(lpf_3rd_lt1818)
1.00000000000000e+04	(6.07972536435696e+01dB,-6.62930580634569e-02°)	(6.11435422636320e+01dB,-7.36054106452382e-02°)
1.01157945425990e+04	(6.07972535870172e+01dB,-6.70606953619128e-02°)	(6.11435422046750e+01dB,-7.44577209744603e-02°)
1.02329299228075e+04	(6.07972535291475e+01dB,-6.78372214766055e-02°)	(6.11435421443447e+01dB,-7.53199005866510e-02°)
1.03514216667934e+04	(6.07972534699298e+01dB,-6.86227393350089e-02°)	(6.11435420826092e+01dB,-7.61920637625237e-02°)
1.04712854805090e+04	(6.07972534093328e+01dB,-6.94173530564352e-02°)	(6.11435420194356e+01dB,-7.70743261061064e-02°)
1.05925372517729e+04	(6.07972533473243e+01dB,-7.02211679658356e-02°)	(6.11435419547906e+01dB,-7.79668045600338e-02°)
1.07151930523761e+04	(6.07972532838714e+01dB,-7.10342906077602e-02°)	(6.11435418886397e+01dB,-7.88696174210764e-02°)
1.08392691402120e+04	(6.07972532189406e+01dB,-7.18568287604803e-02°)	(6.11435418209480e+01dB,-7.97828843558068e-02°)
1.09647819614319e+04	(6.07972531524973e+01dB,-7.26888914502743e-02°)	(6.11435417516796e+01dB,-8.07067264164642e-02°)
1.10917481526240e+04	(6.07972530845063e+01dB,-7.35305889658782e-02°)	(6.11435416807977e+01dB,-8.16412660569978e-02°)
1.12201845430196e+04	(6.07972530149316e+01dB,-7.43820328731041e-02°)	(6.11435416082647e+01dB,-8.25866271492947e-02°)
1.13501081567232e+04	(6.07972529437363e+01dB,-7.52433360296283e-02°)	(6.11435415340423e+01dB,-8.35429349996110e-02°)
1.14815362149688e+04	(6.07972528708827e+01dB,-7.61146125999490e-02°)	(6.11435414580910e+01dB,-8.45103163651615e-02°)
1.16144861384034e+04	(6.07972527963321e+01dB,-7.69959780705195e-02°)	(6.11435413803705e+01dB,-8.54888994709404e-02°)
1.17489755493953e+04	(6.07972527200450e+01dB,-7.78875492650548e-02°)	(6.11435413008397e+01dB,-8.64788140266938e-02°)
1.18850222743702e+04	(6.07972526419809e+01dB,-7.87894443600160e-02°)	(6.11435412194564e+01dB,-8.74801912441514e-02°)
1.20226443461741e+04	(6.07972525620985e+01dB,-7.97017829002745e-02°)	(6.11435411361774e+01dB,-8.84931638543683e-02°)
1.21618600064637e+04	(6.07972524803554e+01dB,-8.06246858149567e-02°)	(6.11435410509587e+01dB,-8.95178661253500e-02°)
1.23026877081238e+04	(6.07972523967082e+01dB,-8.15582754334729e-02°)	(6.11435409637549e+01dB,-9.05544338798376e-02°)
1.24451461177139e+04	(6.07972523111127e+01dB,-8.25026755017313e-02°)	(6.11435408745199e+01dB,-9.16030045133336e-02°)
1.25892541179417e+04	(6.07972522235234e+01dB,-8.34580111985399e-02°)	(6.11435407832063e+01dB,-9.26637170122628e-02°)
1.27350308101666e+04	(6.07972521338938e+01dB,-8.44244091521987e-02°)	(6.11435406897658e+01dB,-9.37367119724505e-02°)
1.28824955169314e+04	(6.07972520421765e+01dB,-8.54019974572831e-02°)	(6.11435405941487e+01dB,-9.48221316177151e-02°)
1.30316677845230e+04	(6.07972519483229e+01dB,-8.63909056916226e-02°)	(6.11435404963045e+01dB,-9.59201198187483e-02°)
1.31825673855641e+04	(6.07972518522831e+01dB,-8.73912649334755e-02°)	(6.11435403961812e+01dB,-9.70308221121649e-02°)
1.33352143216333e+04	(6.07972517540063e+01dB,-8.84032077789029e-02°)	(6.11435402937257e+01dB,-9.81543857198064e-02°)
1.34896288259166e+04	(6.07972516534403e+01dB,-8.94268683593431e-02°)	(6.11435401888837e+01dB,-9.92909595682376e-02°)
1.36458313658893e+04	(6.07972515505318e+01dB,-9.04623823593903e-02°)	(6.11435400815996e+01dB,-1.00440694308508e-01°)
1.38038426460289e+04	(6.07972514452263e+01dB,-9.15098870347791e-02°)	(6.11435399718166e+01dB,-1.01603742336103e-01°)
1.39636836105594e+04	(6.07972513374679e+01dB,-9.25695212305762e-02°)	(6.11435398594764e+01dB,-1.02780257811155e-01°)
1.41253754462276e+04	(6.07972512271995e+01dB,-9.36414253995845e-02°)	(6.11435397445194e+01dB,-1.03970396678854e-01°)
1.42889395851111e+04	(6.07972511143626e+01dB,-9.47257416209586e-02°)	(6.11435396268848e+01dB,-1.05174316690147e-01°)
1.44543977074593e+04	(6.07972509988974e+01dB,-9.58226136190367e-02°)	(6.11435395065101e+01dB,-1.06392177422627e-01°)
1.46217717445672e+04	(6.07972508807427e+01dB,-9.69321867823905e-02°)	(6.11435393833315e+01dB,-1.07624140301702e-01°)
1.47910838816821e+04	(6.07972507598358e+01dB,-9.80546081830955e-02°)	(6.11435392572837e+01dB,-1.08870368621966e-01°)
1.49623565609444e+04	(6.07972506361126e+01dB,-9.91900265962242e-02°)	(6.11435391282999e+01dB,-1.10131027568850e-01°)
1.51356124843621e+04	(6.07972505095076e+01dB,-1.00338592519566e-01°)	(6.11435389963117e+01dB,-1.11406284240535e-01°)
1.53108746168203e+04	(6.07972503799535e+01dB,-1.01500458193574e-01°)	(6.11435388612491e+01dB,-1.12696307670088e-01°)
1.54881661891249e+04	(6.07972502473817e+01dB,-1.02675777621544e-01°)	(6.11435387230404e+01dB,-1.14001268847845e-01°)
1.56675107010815e+04	(6.07972501117220e+01dB,-1.03864706590025e-01°)	(6.11435385816125e+01dB,-1.15321340744125e-01°)
1.58489319246112e+04	(6.07972499729023e+01dB,-1.05067402689470e-01°)	(6.11435384368903e+01dB,-1.16656698332088e-01°)
1.60324539069005e+04	(6.07972498308491e+01dB,-1.06284025335123e-01°)	(6.11435382887971e+01dB,-1.18007518610997e-01°)
1.62181009735893e+04	(6.07972496854870e+01dB,-1.07514735788147e-01°)	(6.11435381372544e+01dB,-1.19373980629629e-01°)
1.64058977319954e+04	(6.07972495367391e+01dB,-1.08759697176997e-01°)	(6.11435379821818e+01dB,-1.20756265510019e-01°)
1.65958690743757e+04	(6.07972493845263e+01dB,-1.10019074519047e-01°)	(6.11435378234970e+01dB,-1.22154556471469e-01°)
1.67880401812257e+04	(6.07972492287681e+01dB,-1.11293034742455e-01°)	(6.11435376611161e+01dB,-1.23569038854857e-01°)
1.69824365246175e+04	(6.07972490693818e+01dB,-1.12581746708291e-01°)	(6.11435374949528e+01dB,-1.24999900147140e-01°)
1.71790838715759e+04	(6.07972489062829e+01dB,-1.13885381232920e-01°)	(6.11435373249191e+01dB,-1.26447330006264e-01°)
1.73780082874938e+04	(6.07972487393850e+01dB,-1.15204111110638e-01°)	(6.11435371509247e+01dB,-1.27911520286277e-01°)
1.75792361395870e+04	(6.07972485685995e+01dB,-1.16538111136579e-01°)	(6.11435369728776e+01dB,-1.29392665062764e-01°)
1.77827941003893e+04	(6.07972483938359e+01dB,-1.17887558129880e-01°)	(6.11435367906832e+01dB,-1.30890960658558e-01°)
1.79887091512879e+04	(6.07972482150016e+01dB,-1.19252630957117e-01°)	(6.11435366042449e+01dB,-1.32406605669766e-01°)
1.81970085860999e+04	(6.07972480320016e+01dB,-1.20633510556012e-01°)	(6.11435364134640e+01dB,-1.33939800992100e-01°)
1.84077200146896e+04	(6.07972478447391e+01dB,-1.22030379959416e-01°)	(6.11435362182392e+01dB,-1.35490749847507e-01°)
1.86208713666287e+04	(6.07972476531146e+01dB,-1.23443424319569e-01°)	(6.11435360184670e+01dB,-1.37059657811077e-01°)
1.88364908948981e+04	(6.07972474570267e+01dB,-1.24872830932636e-01°)	(6.11435358140415e+01dB,-1.38646732838316e-01°)
1.90546071796325e+04	(6.07972472563713e+01dB,-1.26318789263535e-01°)	(6.11435356048544e+01dB,-1.40252185292707e-01°)
1.92752491319094e+04	(6.07972470510420e+01dB,-1.27781490971048e-01°)	(6.11435353907947e+01dB,-1.41876227973563e-01°)
1.94984459975805e+04	(6.07972468409300e+01dB,-1.29261129933224e-01°)	(6.11435351717489e+01dB,-1.43519076144286e-01°)
1.97242273611486e+04	(6.07972466259238e+01dB,-1.30757902273074e-01°)	(6.11435349476008e+01dB,-1.45180947560842e-01°)
1.99526231496889e+04	(6.07972464059096e+01dB,-1.32272006384565e-01°)	(6.11435347182318e+01dB,-1.46862062500647e-01°)
2.01836636368157e+04	(6.07972461807705e+01dB,-1.33803642958917e-01°)	(6.11435344835200e+01dB,-1.48562643791766e-01°)
2.04173794466954e+04	(6.07972459503873e+01dB,-1.35353015011202e-01°)	(6.11435342433410e+01dB,-1.50282916842442e-01°)
2.06538015581054e+04	(6.07972457146378e+01dB,-1.36920327907250e-01°)	(6.11435339975677e+01dB,-1.52023109670955e-01°)
2.08929613085405e+04	(6.07972454733970e+01dB,-1.38505789390866e-01°)	(6.11435337460695e+01dB,-1.53783452935897e-01°)
2.11348903983666e+04	(6.07972452265369e+01dB,-1.40109609611372e-01°)	(6.11435334887131e+01dB,-1.55564179966653e-01°)
2.13796208950224e+04	(6.07972449739268e+01dB,-1.41732001151451e-01°)	(6.11435332253622e+01dB,-1.57365526794413e-01°)
2.16271852372703e+04	(6.07972447154326e+01dB,-1.43373179055326e-01°)	(6.11435329558771e+01dB,-1.59187732183408e-01°)
2.18776162394956e+04	(6.07972444509174e+01dB,-1.45033360857261e-01°)	(6.11435326801149e+01dB,-1.61031037662571e-01°)
2.21309470960565e+04	(6.07972441802407e+01dB,-1.46712766610394e-01°)	(6.11435323979293e+01dB,-1.62895687557539e-01°)
2.23872113856835e+04	(6.07972439032593e+01dB,-1.48411618915902e-01°)	(6.11435321091709e+01dB,-1.64781929023041e-01°)
2.26464430759307e+04	(6.07972436198261e+01dB,-1.50130142952498e-01°)	(6.11435318136863e+01dB,-1.66690012075655e-01°)
2.29086765276778e+04	(6.07972433297909e+01dB,-1.51868566506286e-01°)	(6.11435315113191e+01dB,-1.68620189626935e-01°)
2.31739464996849e+04	(6.07972430330000e+01dB,-1.53627120000942e-01°)	(6.11435312019089e+01dB,-1.70572717516968e-01°)
2.34422881531993e+04	(6.07972427292959e+01dB,-1.55406036528257e-01°)	(6.11435308852916e+01dB,-1.72547854548214e-01°)
2.37137370566167e+04	(6.07972424185176e+01dB,-1.57205551879029e-01°)	(6.11435305612993e+01dB,-1.74545862519865e-01°)
2.39883291901950e+04	(6.07972421005004e+01dB,-1.59025904574316e-01°)	(6.11435302297603e+01dB,-1.76567006262537e-01°)
2.42661009508243e+04	(6.07972417750756e+01dB,-1.60867335897045e-01°)	(6.11435298904988e+01dB,-1.78611553673329e-01°)
2.45470891568504e+04	(6.07972414420708e+01dB,-1.62730089923993e-01°)	(6.11435295433348e+01dB,-1.80679775751366e-01°)
2.48313310529558e+04	(6.07972411013092e+01dB,-1.64614413558135e-01°)	(6.11435291880844e+01dB,-1.82771946633710e-01°)
2.51188643150959e+04	(6.07972407526103e+01dB,-1.66520556561366e-01°)	(6.11435288245592e+01dB,-1.84888343631663e-01°)
2.54097270554932e+04	(6.07972403957893e+01dB,-1.68448771587604e-01°)	(6.11435284525664e+01dB,-1.87029247267597e-01°)
2.57039578276888e+04	(6.07972400306567e+01dB,-1.70399314216274e-01°)	(6.11435280719089e+01dB,-1.89194941312008e-01°)
2.60015956316529e+04	(6.07972396570192e+01dB,-1.72372442986182e-01°)	(6.11435276823846e+01dB,-1.91385712821253e-01°)
2.63026799189540e+04	(6.07972392746786e+01dB,-1.74368419429781e-01°)	(6.11435272837873e+01dB,-1.93601852175510e-01°)
2.66072505979883e+04	(6.07972388834321e+01dB,-1.76387508107826e-01°)	(6.11435268759054e+01dB,-1.95843653117295e-01°)
2.69153480392693e+04	(6.07972384830723e+01dB,-1.78429976644448e-01°)	(6.11435264585227e+01dB,-1.98111412790386e-01°)
2.72270130807793e+04	(6.07972380733870e+01dB,-1.80496095762612e-01°)	(6.11435260314180e+01dB,-2.00405431779198e-01°)
2.75422870333818e+04	(6.07972376541589e+01dB,-1.82586139320001e-01°)	(6.11435255943648e+01dB,-2.02726014148655e-01°)
2.78612116862979e+04	(6.07972372251658e+01dB,-1.84700384345311e-01°)	(6.11435251471313e+01dB,-2.05073467484407e-01°)
2.81838293126447e+04	(6.07972367861801e+01dB,-1.86839111074964e-01°)	(6.11435246894804e+01dB,-2.07448102933696e-01°)
2.85101826750393e+04	(6.07972363369692e+01dB,-1.89002602990249e-01°)	(6.11435242211695e+01dB,-2.09850235246519e-01°)
2.88403150312663e+04	(6.07972358772948e+01dB,-1.91191146854891e-01°)	(6.11435237419503e+01dB,-2.12280182817354e-01°)
2.91742701400119e+04	(6.07972354069133e+01dB,-1.93405032753056e-01°)	(6.11435232515687e+01dB,-2.14738267727398e-01°)
2.95120922666641e+04	(6.07972349255752e+01dB,-1.95644554127794e-01°)	(6.11435227497646e+01dB,-2.17224815787176e-01°)
2.98538261891798e+04	(6.07972344330254e+01dB,-1.97910007819929e-01°)	(6.11435222362721e+01dB,-2.19740156579807e-01°)
3.01995172040204e+04	(6.07972339290026e+01dB,-2.00201694107402e-01°)	(6.11435217108189e+01dB,-2.22284623504611e-01°)
3.05492111321553e+04	(6.07972334132396e+01dB,-2.02519916745059e-01°)	(6.11435211731263e+01dB,-2.24858553821345e-01°)
3.09029543251361e+04	(6.07972328854630e+01dB,-2.04864983004915e-01°)	(6.11435206229092e+01dB,-2.27462288694861e-01°)
3.12607936712398e+04	(6.07972323453930e+01dB,-2.07237203716866e-01°)	(6.11435200598760e+01dB,-2.30096173240315e-01°)
3.16227766016840e+04	(6.07972317927431e+01dB,-2.09636893309893e-01°)	(6.11435194837282e+01dB,-2.32760556568946e-01°)
3.19889510969142e+04	(6.07972312272204e+01dB,-2.12064369853720e-01°)	(6.11435188941602e+01dB,-2.35455791834325e-01°)
3.23593656929631e+04	(6.07972306485251e+01dB,-2.14519955100977e-01°)	(6.11435182908594e+01dB,-2.38182236279117e-01°)
3.27340694878841e+04	(6.07972300563502e+01dB,-2.17003974529830e-01°)	(6.11435176735060e+01dB,-2.40940251282481e-01°)
3.31131121482594e+04	(6.07972294503818e+01dB,-2.19516757387122e-01°)	(6.11435170417727e+01dB,-2.43730202407910e-01°)
3.34965439157830e+04	(6.07972288302987e+01dB,-2.22058636732002e-01°)	(6.11435163953244e+01dB,-2.46552459451735e-01°)
3.38844156139205e+04	(6.07972281957721e+01dB,-2.24629949480063e-01°)	(6.11435157338185e+01dB,-2.49407396492066e-01°)
3.42767786546453e+04	(6.07972275464655e+01dB,-2.27231036447992e-01°)	(6.11435150569042e+01dB,-2.52295391938412e-01°)
3.46736850452534e+04	(6.07972268820346e+01dB,-2.29862242398734e-01°)	(6.11435143642227e+01dB,-2.55216828581782e-01°)
3.50751873952571e+04	(6.07972262021272e+01dB,-2.32523916087179e-01°)	(6.11435136554066e+01dB,-2.58172093645484e-01°)
3.54813389233578e+04	(6.07972255063828e+01dB,-2.35216410306382e-01°)	(6.11435129300801e+01dB,-2.61161578836367e-01°)
3.58921934645008e+04	(6.07972247944325e+01dB,-2.37940081934312e-01°)	(6.11435121878586e+01dB,-2.64185680396760e-01°)
3.63078054770104e+04	(6.07972240658988e+01dB,-2.40695291981146e-01°)	(6.11435114283487e+01dB,-2.67244799156991e-01°)
3.67282300498088e+04	(6.07972233203954e+01dB,-2.43482405637107e-01°)	(6.11435106511476e+01dB,-2.70339340588484e-01°)
3.71535229097176e+04	(6.07972225575271e+01dB,-2.46301792320862e-01°)	(6.11435098558433e+01dB,-2.73469714857497e-01°)
3.75837404288447e+04	(6.07972217768894e+01dB,-2.49153825728473e-01°)	(6.11435090420140e+01dB,-2.76636336879462e-01°)
3.80189396320564e+04	(6.07972209780684e+01dB,-2.52038883882915e-01°)	(6.11435082092283e+01dB,-2.79839626374023e-01°)
3.84591782045357e+04	(6.07972201606405e+01dB,-2.54957349184176e-01°)	(6.11435073570447e+01dB,-2.83080007920539e-01°)
3.89045144994284e+04	(6.07972193241724e+01dB,-2.57909608459924e-01°)	(6.11435064850113e+01dB,-2.86357911014497e-01°)
3.93550075455781e+04	(6.07972184682205e+01dB,-2.60896053016770e-01°)	(6.11435055926657e+01dB,-2.89673770124302e-01°)
3.98107170553501e+04	(6.07972175923311e+01dB,-2.63917078692119e-01°)	(6.11435046795348e+01dB,-2.93028024748895e-01°)
4.02717034325463e+04	(6.07972166960396e+01dB,-2.66973085906624e-01°)	(6.11435037451345e+01dB,-2.96421119475977e-01°)
4.07380277804116e+04	(6.07972157788710e+01dB,-2.70064479717244e-01°)	(6.11435027889694e+01dB,-2.99853504040986e-01°)
4.12097519097334e+04	(6.07972148403388e+01dB,-2.73191669870921e-01°)	(6.11435018105324e+01dB,-3.03325633386568e-01°)
4.16869383470339e+04	(6.07972138799456e+01dB,-2.76355070858872e-01°)	(6.11435008093049e+01dB,-3.06837967722965e-01°)
4.21696503428586e+04	(6.07972128971820e+01dB,-2.79555101971514e-01°)	(6.11434997847560e+01dB,-3.10390972588953e-01°)
4.26579518801596e+04	(6.07972118915271e+01dB,-2.82792187354019e-01°)	(6.11434987363423e+01dB,-3.13985118913559e-01°)
4.31519076827769e+04	(6.07972108624475e+01dB,-2.86066756062521e-01°)	(6.11434976635082e+01dB,-3.17620883078366e-01°)
4.36515832240170e+04	(6.07972098093978e+01dB,-2.89379242120963e-01°)	(6.11434965656847e+01dB,-3.21298746980761e-01°)
4.41570447353316e+04	(6.07972087318195e+01dB,-2.92730084578611e-01°)	(6.11434954422898e+01dB,-3.25019198097735e-01°)
4.46683592150967e+04	(6.07972076291414e+01dB,-2.96119727568225e-01°)	(6.11434942927279e+01dB,-3.28782729550417e-01°)
4.51855944374926e+04	(6.07972065007787e+01dB,-2.99548620364908e-01°)	(6.11434931163895e+01dB,-3.32589840169529e-01°)
4.57088189614879e+04	(6.07972053461333e+01dB,-3.03017217445637e-01°)	(6.11434919126508e+01dB,-3.36441034561353e-01°)
4.62381021399265e+04	(6.07972041645929e+01dB,-3.06525978549480e-01°)	(6.11434906808736e+01dB,-3.40336823174698e-01°)
4.67735141287203e+04	(6.07972029555311e+01dB,-3.10075368738508e-01°)	(6.11434894204049e+01dB,-3.44277722368457e-01°)
4.73151258961485e+04	(6.07972017183068e+01dB,-3.13665858459416e-01°)	(6.11434881305764e+01dB,-3.48264254480076e-01°)
4.78630092322643e+04	(6.07972004522640e+01dB,-3.17297923605858e-01°)	(6.11434868107041e+01dB,-3.52296947894703e-01°)
4.84172367584104e+04	(6.07971991567315e+01dB,-3.20972045581493e-01°)	(6.11434854600883e+01dB,-3.56376337115242e-01°)
4.89778819368451e+04	(6.07971978310224e+01dB,-3.24688711363773e-01°)	(6.11434840780130e+01dB,-3.60502962833154e-01°)
4.95450190804795e+04	(6.07971964744338e+01dB,-3.28448413568463e-01°)	(6.11434826637452e+01dB,-3.64677372000100e-01°)
5.01187233627277e+04	(6.07971950862464e+01dB,-3.32251650514906e-01°)	(6.11434812165352e+01dB,-3.68900117900387e-01°)
5.06990708274709e+04	(6.07971936657242e+01dB,-3.36098926292045e-01°)	(6.11434797356157e+01dB,-3.73171760224290e-01°)
5.12861383991370e+04	(6.07971922121141e+01dB,-3.39990750825209e-01°)	(6.11434782202015e+01dB,-3.77492865142173e-01°)
5.18800038928966e+04	(6.07971907246453e+01dB,-3.43927639943670e-01°)	(6.11434766694890e+01dB,-3.81864005379544e-01°)
5.24807460249778e+04	(6.07971892025293e+01dB,-3.47910115448986e-01°)	(6.11434750826563e+01dB,-3.86285760292863e-01°)
5.30884444230994e+04	(6.07971876449588e+01dB,-3.51938705184124e-01°)	(6.11434734588618e+01dB,-3.90758715946392e-01°)
5.37031796370258e+04	(6.07971860511083e+01dB,-3.56013943103396e-01°)	(6.11434717972447e+01dB,-3.95283465189730e-01°)
5.43250331492439e+04	(6.07971844201325e+01dB,-3.60136369343194e-01°)	(6.11434700969239e+01dB,-3.99860607736437e-01°)
5.49540873857630e+04	(6.07971827511667e+01dB,-3.64306530293547e-01°)	(6.11434683569981e+01dB,-4.04490750243417e-01°)
5.55904257270409e+04	(6.07971810433261e+01dB,-3.68524978670504e-01°)	(6.11434665765446e+01dB,-4.09174506391352e-01°)
5.62341325190355e+04	(6.07971792957051e+01dB,-3.72792273589358e-01°)	(6.11434647546195e+01dB,-4.13912496965926e-01°)
5.68852930843847e+04	(6.07971775073773e+01dB,-3.77108980638710e-01°)	(6.11434628902568e+01dB,-4.18705349940095e-01°)
5.75439937337163e+04	(6.07971756773943e+01dB,-3.81475671955395e-01°)	(6.11434609824681e+01dB,-4.23553700557281e-01°)
5.82103217770878e+04	(6.07971738047860e+01dB,-3.85892926300273e-01°)	(6.11434590302418e+01dB,-4.28458191415503e-01°)
5.88843655355595e+04	(6.07971718885595e+01dB,-3.90361329134896e-01°)	(6.11434570325429e+01dB,-4.33419472552523e-01°)
5.95662143529017e+04	(6.07971699276988e+01dB,-3.94881472699063e-01°)	(6.11434549883123e+01dB,-4.38438201531909e-01°)
6.02559586074364e+04	(6.07971679211643e+01dB,-3.99453956089268e-01°)	(6.11434528964660e+01dB,-4.43515043530188e-01°)
6.09536897240176e+04	(6.07971658678921e+01dB,-4.04079385338058e-01°)	(6.11434507558950e+01dB,-4.48650671424880e-01°)
6.16595001861489e+04	(6.07971637667936e+01dB,-4.08758373494310e-01°)	(6.11434485654644e+01dB,-4.53845765883743e-01°)
6.23734835482426e+04	(6.07971616167548e+01dB,-4.13491540704433e-01°)	(6.11434463240128e+01dB,-4.59101015454812e-01°)
6.30957344480200e+04	(6.07971594166358e+01dB,-4.18279514294509e-01°)	(6.11434440303519e+01dB,-4.64417116657635e-01°)
6.38263486190556e+04	(6.07971571652701e+01dB,-4.23122928853387e-01°)	(6.11434416832656e+01dB,-4.69794774075590e-01°)
6.45654229034663e+04	(6.07971548614640e+01dB,-4.28022426316732e-01°)	(6.11434392815094e+01dB,-4.75234700449074e-01°)
6.53130552647480e+04	(6.07971525039960e+01dB,-4.32978656052052e-01°)	(6.11434368238100e+01dB,-4.80737616770069e-01°)
6.60693448007603e+04	(6.07971500916162e+01dB,-4.37992274944702e-01°)	(6.11434343088644e+01dB,-4.86304252377493e-01°)
6.68343917568622e+04	(6.07971476230457e+01dB,-4.43063947484888e-01°)	(6.11434317353391e+01dB,-4.91935345053802e-01°)
6.76082975391989e+04	(6.07971450969756e+01dB,-4.48194345855669e-01°)	(6.11434291018697e+01dB,-4.97631641122843e-01°)
6.83911647281437e+04	(6.07971425120665e+01dB,-4.53384150021985e-01°)	(6.11434264070600e+01dB,-5.03393895548509e-01°)
6.91830970918945e+04	(6.07971398669481e+01dB,-4.58634047820707e-01°)	(6.11434236494812e+01dB,-5.09222872034852e-01°)
