Freq.	V(n001)/I(Iin2)
1.00000000000000e+04	(-3.88395903410801e+00dB,3.57738283303655e+00°)
1.01157945425990e+04	(-3.88356127218070e+00dB,3.61869588042116e+00°)
1.02329299228075e+04	(-3.88315428290199e+00dB,3.66048341906953e+00°)
1.03514216667934e+04	(-3.88273785310666e+00dB,3.70275080733758e+00°)
1.04712854805090e+04	(-3.88231176475128e+00dB,3.74550346090195e+00°)
1.05925372517729e+04	(-3.88187579479744e+00dB,3.78874685323370e+00°)
1.07151930523761e+04	(-3.88142971510745e+00dB,3.83248651613572e+00°)
1.08392691402120e+04	(-3.88097329231659e+00dB,3.87672804020614e+00°)
1.09647819614319e+04	(-3.88050628772089e+00dB,3.92147707536519e+00°)
1.10917481526240e+04	(-3.88002845717814e+00dB,3.96673933134419e+00°)
1.12201845430196e+04	(-3.87953955095979e+00dB,4.01252057818465e+00°)
1.13501081567232e+04	(-3.87903931361575e+00dB,4.05882664673196e+00°)
1.14815362149688e+04	(-3.87852748389819e+00dB,4.10566342914243e+00°)
1.16144861384034e+04	(-3.87800379457760e+00dB,4.15303687937227e+00°)
1.17489755493953e+04	(-3.87746797233335e+00dB,4.20095301366635e+00°)
1.18850222743702e+04	(-3.87691973761327e+00dB,4.24941791107146e+00°)
1.20226443461741e+04	(-3.87635880450938e+00dB,4.29843771390580e+00°)
1.21618600064637e+04	(-3.87578488059940e+00dB,4.34801862824626e+00°)
1.23026877081238e+04	(-3.87519766678831e+00dB,4.39816692442433e+00°)
1.24451461177139e+04	(-3.87459685719015e+00dB,4.44888893751413e+00°)
1.25892541179417e+04	(-3.87398213898220e+00dB,4.50019106779043e+00°)
1.27350308101666e+04	(-3.87335319222153e+00dB,4.55207978122763e+00°)
1.28824955169314e+04	(-3.87270968968354e+00dB,4.60456160994034e+00°)
1.30316677845230e+04	(-3.87205129674903e+00dB,4.65764315269580e+00°)
1.31825673855641e+04	(-3.87137767118681e+00dB,4.71133107532810e+00°)
1.33352143216333e+04	(-3.87068846302165e+00dB,4.76563211123154e+00°)
1.34896288259166e+04	(-3.86998331436533e+00dB,4.82055306179593e+00°)
1.36458313658893e+04	(-3.86926185918519e+00dB,4.87610079684597e+00°)
1.38038426460289e+04	(-3.86852372322037e+00dB,4.93228225510558e+00°)
1.39636836105594e+04	(-3.86776852371230e+00dB,4.98910444461129e+00°)
1.41253754462276e+04	(-3.86699586928597e+00dB,5.04657444313715e+00°)
1.42889395851111e+04	(-3.86620535970965e+00dB,5.10469939862125e+00°)
1.44543977074593e+04	(-3.86539658574671e+00dB,5.16348652958393e+00°)
1.46217717445672e+04	(-3.86456912891415e+00dB,5.22294312550893e+00°)
1.47910838816821e+04	(-3.86372256131711e+00dB,5.28307654724748e+00°)
1.49623565609444e+04	(-3.86285644543629e+00dB,5.34389422739609e+00°)
1.51356124843621e+04	(-3.86197033392032e+00dB,5.40540367067475e+00°)
1.53108746168203e+04	(-3.86106376934931e+00dB,5.46761245428849e+00°)
1.54881661891249e+04	(-3.86013628405009e+00dB,5.53052822825888e+00°)
1.56675107010815e+04	(-3.85918739986610e+00dB,5.59415871579744e+00°)
1.58489319246112e+04	(-3.85821662791183e+00dB,5.65851171357974e+00°)
1.60324539069005e+04	(-3.85722346837999e+00dB,5.72359509211253e+00°)
1.62181009735893e+04	(-3.85620741027126e+00dB,5.78941679599483e+00°)
1.64058977319954e+04	(-3.85516793116236e+00dB,5.85598484419377e+00°)
1.65958690743757e+04	(-3.85410449699996e+00dB,5.92330733033639e+00°)
1.67880401812257e+04	(-3.85301656178184e+00dB,5.99139242296211e+00°)
1.69824365246175e+04	(-3.85190356737946e+00dB,6.06024836571332e+00°)
1.71790838715759e+04	(-3.85076494323364e+00dB,6.12988347759739e+00°)
1.73780082874938e+04	(-3.84960010608979e+00dB,6.20030615315127e+00°)
1.75792361395870e+04	(-3.84840845976762e+00dB,6.27152486264503e+00°)
1.77827941003893e+04	(-3.84718939484916e+00dB,6.34354815220830e+00°)
1.79887091512879e+04	(-3.84594228842326e+00dB,6.41638464396922e+00°)
1.81970085860999e+04	(-3.84466650379978e+00dB,6.49004303618329e+00°)
1.84077200146896e+04	(-3.84336139021907e+00dB,6.56453210331571e+00°)
1.86208713666287e+04	(-3.84202628255631e+00dB,6.63986069608641e+00°)
1.88364908948981e+04	(-3.84066050103565e+00dB,6.71603774151515e+00°)
1.90546071796325e+04	(-3.83926335089555e+00dB,6.79307224294336e+00°)
1.92752491319094e+04	(-3.83783412212964e+00dB,6.87097327999552e+00°)
1.94984459975805e+04	(-3.83637208913156e+00dB,6.94975000856350e+00°)
1.97242273611486e+04	(-3.83487651038172e+00dB,7.02941166069699e+00°)
1.99526231496889e+04	(-3.83334662814943e+00dB,7.10996754450438e+00°)
2.01836636368157e+04	(-3.83178166812437e+00dB,7.19142704402367e+00°)
2.04173794466954e+04	(-3.83018083911081e+00dB,7.27379961903817e+00°)
2.06538015581054e+04	(-3.82854333266360e+00dB,7.35709480485577e+00°)
2.08929613085405e+04	(-3.82686832275156e+00dB,7.44132221209398e+00°)
2.11348903983666e+04	(-3.82515496540142e+00dB,7.52649152633765e+00°)
2.13796208950224e+04	(-3.82340239835805e+00dB,7.61261250788881e+00°)
2.16271852372703e+04	(-3.82160974066453e+00dB,7.69969499132511e+00°)
2.18776162394956e+04	(-3.81977609236679e+00dB,7.78774888514117e+00°)
2.21309470960565e+04	(-3.81790053407752e+00dB,7.87678417128833e+00°)
2.23872113856835e+04	(-3.81598212661198e+00dB,7.96681090463847e+00°)
2.26464430759307e+04	(-3.81401991062533e+00dB,8.05783921249815e+00°)
2.29086765276778e+04	(-3.81201290617830e+00dB,8.14987929395412e+00°)
2.31739464996849e+04	(-3.80996011236563e+00dB,8.24294141928974e+00°)
2.34422881531993e+04	(-3.80786050689825e+00dB,8.33703592920683e+00°)
2.37137370566167e+04	(-3.80571304569200e+00dB,8.43217323413541e+00°)
2.39883291901950e+04	(-3.80351666246124e+00dB,8.52836381341306e+00°)
2.42661009508243e+04	(-3.80127026829144e+00dB,8.62561821439754e+00°)
2.45470891568504e+04	(-3.79897275118692e+00dB,8.72394705153293e+00°)
2.48313310529558e+04	(-3.79662297569207e+00dB,8.82336100540920e+00°)
2.51188643150959e+04	(-3.79421978238308e+00dB,8.92387082161646e+00°)
2.54097270554932e+04	(-3.79176198748196e+00dB,9.02548730975174e+00°)
2.57039578276888e+04	(-3.78924838237530e+00dB,9.12822134208828e+00°)
2.60015956316529e+04	(-3.78667773314638e+00dB,9.23208385241822e+00°)
2.63026799189540e+04	(-3.78404878015472e+00dB,9.33708583467777e+00°)
2.66072505979883e+04	(-3.78136023752864e+00dB,9.44323834154319e+00°)
2.69153480392693e+04	(-3.77861079270582e+00dB,9.55055248291986e+00°)
2.72270130807793e+04	(-3.77579910598166e+00dB,9.65903942444848e+00°)
2.75422870333818e+04	(-3.77292380996988e+00dB,9.76871038576869e+00°)
2.78612116862979e+04	(-3.76998350918760e+00dB,9.87957663884214e+00°)
2.81838293126447e+04	(-3.76697677948572e+00dB,9.99164950611661e+00°)
2.85101826750393e+04	(-3.76390216762293e+00dB,1.01049403586079e+01°)
2.88403150312663e+04	(-3.76075819073234e+00dB,1.02194606139178e+01°)
2.91742701400119e+04	(-3.75754333579155e+00dB,1.03352217340982e+01°)
2.95120922666641e+04	(-3.75425605916697e+00dB,1.04522352234898e+01°)
2.98538261891798e+04	(-3.75089478607433e+00dB,1.05705126264404e+01°)
3.01995172040204e+04	(-3.74745791004053e+00dB,1.06900655248468e+01°)
3.05492111321553e+04	(-3.74394379243554e+00dB,1.08109055357294e+01°)
3.09029543251361e+04	(-3.74035076189411e+00dB,1.09330443085373e+01°)
3.12607936712398e+04	(-3.73667711383588e+00dB,1.10564935224789e+01°)
3.16227766016840e+04	(-3.73292110991021e+00dB,1.11812648836781e+01°)
3.19889510969142e+04	(-3.72908097746123e+00dB,1.13073701221836e+01°)
3.23593656929631e+04	(-3.72515490903434e+00dB,1.14348209889515e+01°)
3.27340694878841e+04	(-3.72114106180058e+00dB,1.15636292526049e+01°)
3.31131121482594e+04	(-3.71703755703718e+00dB,1.16938066961062e+01°)
3.34965439157830e+04	(-3.71284247959664e+00dB,1.18253651133428e+01°)
3.38844156139205e+04	(-3.70855387736816e+00dB,1.19583163055067e+01°)
3.42767786546453e+04	(-3.70416976074327e+00dB,1.20926720774017e+01°)
3.46736850452534e+04	(-3.69968810207183e+00dB,1.22284442335350e+01°)
3.50751873952571e+04	(-3.69510683513585e+00dB,1.23656445742120e+01°)
3.54813389233578e+04	(-3.69042385462987e+00dB,1.25042848913247e+01°)
3.58921934645008e+04	(-3.68563701559701e+00dB,1.26443769640811e+01°)
3.63078054770104e+04	(-3.68074413292351e+00dB,1.27859325545703e+01°)
3.67282300498088e+04	(-3.67574298082880e+00dB,1.29289634032131e+01°)
3.71535229097176e+04	(-3.67063129229751e+00dB,1.30734812239555e+01°)
3.75837404288447e+04	(-3.66540675862097e+00dB,1.32194976993941e+01°)
3.80189396320564e+04	(-3.66006702883409e+00dB,1.33670244757695e+01°)
3.84591782045357e+04	(-3.65460970925626e+00dB,1.35160731576386e+01°)
3.89045144994284e+04	(-3.64903236294627e+00dB,1.36666553026190e+01°)
3.93550075455781e+04	(-3.64333250923365e+00dB,1.38187824156732e+01°)
3.98107170553501e+04	(-3.63750762325603e+00dB,1.39724659435219e+01°)
4.02717034325463e+04	(-3.63155513543876e+00dB,1.41277172686659e+01°)
4.07380277804116e+04	(-3.62547243106551e+00dB,1.42845477033656e+01°)
4.12097519097334e+04	(-3.61925684980301e+00dB,1.44429684832943e+01°)
4.16869383470339e+04	(-3.61290568528349e+00dB,1.46029907612442e+01°)
4.21696503428586e+04	(-3.60641618462768e+00dB,1.47646256003432e+01°)
4.26579518801596e+04	(-3.59978554806085e+00dB,1.49278839674132e+01°)
4.31519076827769e+04	(-3.59301092854917e+00dB,1.50927767259049e+01°)
4.36515832240170e+04	(-3.58608943129717e+00dB,1.52593146287067e+01°)
4.41570447353316e+04	(-3.57901811349776e+00dB,1.54275083108805e+01°)
4.46683592150967e+04	(-3.57179398390667e+00dB,1.55973682820097e+01°)
4.51855944374926e+04	(-3.56441400252700e+00dB,1.57689049185282e+01°)
4.57088189614879e+04	(-3.55687508030972e+00dB,1.59421284557948e+01°)
4.62381021399265e+04	(-3.54917407882559e+00dB,1.61170489798967e+01°)
4.67735141287203e+04	(-3.54130781003072e+00dB,1.62936764194665e+01°)
4.73151258961485e+04	(-3.53327303597969e+00dB,1.64720205370472e+01°)
4.78630092322643e+04	(-3.52506646863969e+00dB,1.66520909205000e+01°)
4.84172367584104e+04	(-3.51668476967507e+00dB,1.68338969740698e+01°)
4.89778819368451e+04	(-3.50812455028370e+00dB,1.70174479093297e+01°)
4.95450190804795e+04	(-3.49938237102690e+00dB,1.72027527358910e+01°)
5.01187233627277e+04	(-3.49045474177548e+00dB,1.73898202519969e+01°)
5.06990708274709e+04	(-3.48133812157914e+00dB,1.75786590348583e+01°)
5.12861383991370e+04	(-3.47202891864288e+00dB,1.77692774308069e+01°)
5.18800038928966e+04	(-3.46252349033250e+00dB,1.79616835453731e+01°)
5.24807460249778e+04	(-3.45281814317614e+00dB,1.81558852330471e+01°)
5.30884444230994e+04	(-3.44290913292981e+00dB,1.83518900869514e+01°)
5.37031796370258e+04	(-3.43279266468176e+00dB,1.85497054282800e+01°)
5.43250331492439e+04	(-3.42246489300824e+00dB,1.87493382956605e+01°)
5.49540873857630e+04	(-3.41192192215779e+00dB,1.89507954343093e+01°)
5.55904257270409e+04	(-3.40115980626301e+00dB,1.91540832849834e+01°)
5.62341325190355e+04	(-3.39017454963864e+00dB,1.93592079728237e+01°)
5.68852930843847e+04	(-3.37896210709044e+00dB,1.95661752960874e+01°)
5.75439937337163e+04	(-3.36751838430710e+00dB,1.97749907147288e+01°)
5.82103217770878e+04	(-3.35583923824124e+00dB,1.99856593387166e+01°)
5.88843655355595e+04	(-3.34392047763825e+00dB,2.01981859165058e+01°)
5.95662143529017e+04	(-3.33175786354284e+00dB,2.04125748231314e+01°)
6.02559586074364e+04	(-3.31934710985824e+00dB,2.06288300482934e+01°)
6.09536897240176e+04	(-3.30668388402303e+00dB,2.08469551843552e+01°)
6.16595001861489e+04	(-3.29376380769635e+00dB,2.10669534143628e+01°)
6.23734835482426e+04	(-3.28058245752475e+00dB,2.12888274997592e+01°)
6.30957344480200e+04	(-3.26713536595399e+00dB,2.15125797681579e+01°)
6.38263486190556e+04	(-3.25341802211309e+00dB,2.17382121011551e+01°)
6.45654229034663e+04	(-3.23942587278200e+00dB,2.19657259219246e+01°)
6.53130552647480e+04	(-3.22515432337154e+00dB,2.21951221829498e+01°)
6.60693448007603e+04	(-3.21059873906708e+00dB,2.24264013537172e+01°)
6.68343917568622e+04	(-3.19575444589986e+00dB,2.26595634081325e+01°)
6.76082975391989e+04	(-3.18061673202948e+00dB,2.28946078125540e+01°)
6.83911647281437e+04	(-3.16518084900443e+00dB,2.31315335132054e+01°)
6.91830970918945e+04	(-3.14944201315206e+00dB,2.33703389241411e+01°)
6.99841996002282e+04	(-3.13339540698987e+00dB,2.36110219149632e+01°)
7.07945784384146e+04	(-3.11703618074545e+00dB,2.38535797987946e+01°)
7.16143410212911e+04	(-3.10035945395462e+00dB,2.40980093203398e+01°)
7.24435960074999e+04	(-3.08336031709898e+00dB,2.43443066439510e+01°)
7.32824533138913e+04	(-3.06603383337170e+00dB,2.45924673420638e+01°)
7.41310241300927e+04	(-3.04837504045876e+00dB,2.48424863835924e+01°)
7.49894209332465e+04	(-3.03037895247662e+00dB,2.50943581225620e+01°)
7.58577575029193e+04	(-3.01204056189421e+00dB,2.53480762870728e+01°)
7.67361489361829e+04	(-2.99335484161607e+00dB,2.56036339683008e+01°)
7.76247116628701e+04	(-2.97431674708362e+00dB,2.58610236099256e+01°)
7.85235634610082e+04	(-2.95492121849665e+00dB,2.61202369977348e+01°)
7.94328234724292e+04	(-2.93516318307428e+00dB,2.63812652495686e+01°)
8.03526122185628e+04	(-2.91503755741223e+00dB,2.66440988055151e+01°)
8.12830516164110e+04	(-2.89453924996007e+00dB,2.69087274186765e+01°)
8.22242649947082e+04	(-2.87366316346457e+00dB,2.71751401458589e+01°)
8.31763771102682e+04	(-2.85240419758605e+00dB,2.74433253392932e+01°)
8.41395141645206e+04	(-2.83075725155166e+00dB,2.77132706381471e+01°)
8.51138038202388e+04	(-2.80871722689909e+00dB,2.79849629609101e+01°)
8.60993752184612e+04	(-2.78627903024285e+00dB,2.82583884980899e+01°)
8.70963589956092e+04	(-2.76343757615901e+00dB,2.85335327053109e+01°)
8.81048873008026e+04	(-2.74018779013906e+00dB,2.88103802972698e+01°)
8.91250938133757e+04	(-2.71652461154694e+00dB,2.90889152417238e+01°)
9.01571137605969e+04	(-2.69244299673355e+00dB,2.93691207545687e+01°)
9.12010839355922e+04	(-2.66793792210560e+00dB,2.96509792951608e+01°)
9.22571427154776e+04	(-2.64300438735684e+00dB,2.99344725623900e+01°)
9.33254300797004e+04	(-2.61763741866780e+00dB,3.02195814914002e+01°)
9.44060876285936e+04	(-2.59183207200309e+00dB,3.05062862509208e+01°)
9.54992586021449e+04	(-2.56558343645172e+00dB,3.07945662413213e+01°)
9.66050878989827e+04	(-2.53888663758816e+00dB,3.10844000933433e+01°)
9.77237220955824e+04	(-2.51173684092645e+00dB,3.13757656676440e+01°)
9.88553094656953e+04	(-2.48412925533008e+00dB,3.16686400549717e+01°)
1.00000000000001e+05	(-2.45605913654388e+00dB,3.19629995771274e+01°)
1.01157945425991e+05	(-2.42752179068306e+00dB,3.22588197888876e+01°)
1.02329299228077e+05	(-2.39851257778730e+00dB,3.25560754804322e+01°)
1.03514216667936e+05	(-2.36902691538620e+00dB,3.28547406807832e+01°)
1.04712854805091e+05	(-2.33906028205569e+00dB,3.31547886621008e+01°)
1.05925372517730e+05	(-2.30860822102286e+00dB,3.34561919447129e+01°)
1.07151930523762e+05	(-2.27766634374355e+00dB,3.37589223030174e+01°)
1.08392691402122e+05	(-2.24623033348753e+00dB,3.40629507723531e+01°)
1.09647819614320e+05	(-2.21429594893202e+00dB,3.43682476566017e+01°)
1.10917481526242e+05	(-2.18185902770335e+00dB,3.46747825367939e+01°)
1.12201845430198e+05	(-2.14891548996278e+00dB,3.49825242805113e+01°)
1.13501081567233e+05	(-2.11546134189480e+00dB,3.52914410522098e+01°)
1.14815362149690e+05	(-2.08149267924163e+00dB,3.56015003245358e+01°)
1.16144861384036e+05	(-2.04700569072888e+00dB,3.59126688902663e+01°)
1.17489755493955e+05	(-2.01199666150582e+00dB,3.62249128754240e+01°)
1.18850222743704e+05	(-1.97646197650681e+00dB,3.65381977531870e+01°)
1.20226443461743e+05	(-1.94039812377735e+00dB,3.68524883585423e+01°)
1.21618600064639e+05	(-1.90380169771437e+00dB,3.71677489039038e+01°)
1.23026877081240e+05	(-1.86666940228572e+00dB,3.74839429958118e+01°)
1.24451461177140e+05	(-1.82899805412628e+00dB,3.78010336519548e+01°)
1.25892541179419e+05	(-1.79078458556471e+00dB,3.81189833195123e+01°)
1.27350308101668e+05	(-1.75202604763034e+00dB,3.84377538941509e+01°)
1.28824955169315e+05	(-1.71271961287739e+00dB,3.87573067396095e+01°)
1.30316677845232e+05	(-1.67286257817109e+00dB,3.90776027084797e+01°)
1.31825673855643e+05	(-1.63245236734839e+00dB,3.93986021632431e+01°)
1.33352143216335e+05	(-1.59148653381421e+00dB,3.97202649985212e+01°)
1.34896288259168e+05	(-1.54996276295242e+00dB,4.00425506635872e+01°)
1.36458313658895e+05	(-1.50787887448324e+00dB,4.03654181858781e+01°)
1.38038426460291e+05	(-1.46523282467740e+00dB,4.06888261949872e+01°)
1.39636836105596e+05	(-1.42202270844603e+00dB,4.10127329472645e+01°)
1.41253754462278e+05	(-1.37824676126224e+00dB,4.13370963509170e+01°)
1.42889395851113e+05	(-1.33390336105838e+00dB,4.16618739920564e+01°)
1.44543977074595e+05	(-1.28899102981025e+00dB,4.19870231605012e+01°)
1.46217717445674e+05	(-1.24350843515008e+00dB,4.23125008768043e+01°)
1.47910838816823e+05	(-1.19745439173881e+00dB,4.26382639191738e+01°)
1.49623565609446e+05	(-1.15082786248795e+00dB,4.29642688510888e+01°)
1.51356124843623e+05	(-1.10362795968305e+00dB,4.32904720489634e+01°)
1.53108746168206e+05	(-1.05585394590152e+00dB,4.36168297304143e+01°)
1.54881661891251e+05	(-1.00750523479978e+00dB,4.39432979825339e+01°)
1.56675107010818e+05	(-9.58581391727271e-01dB,4.42698327904385e+01°)
1.58489319246114e+05	(-9.09082134203650e-01dB,4.45963900660568e+01°)
1.60324539069007e+05	(-8.59007332207694e-01dB,4.49229256768850e+01°)
1.62181009735896e+05	(-8.08357008330862e-01dB,4.52493954748895e+01°)
1.64058977319957e+05	(-7.57131337737654e-01dB,4.55757553254342e+01°)
1.65958690743759e+05	(-7.05330648002794e-01dB,4.59019611361909e+01°)
1.67880401812259e+05	(-6.52955418751304e-01dB,4.62279688857929e+01°)
1.69824365246177e+05	(-6.00006281174344e-01dB,4.65537346527080e+01°)
1.71790838715762e+05	(-5.46484017333594e-01dB,4.68792146436070e+01°)
1.73780082874941e+05	(-4.92389559379046e-01dB,4.72043652216752e+01°)
1.75792361395872e+05	(-4.37723988534694e-01dB,4.75291429346565e+01°)
1.77827941003895e+05	(-3.82488533993656e-01dB,4.78535045425827e+01°)
1.79887091512882e+05	(-3.26684571622965e-01dB,4.81774070451469e+01°)
1.81970085861002e+05	(-2.70313622541193e-01dB,4.85008077086507e+01°)
1.84077200146899e+05	(-2.13377351531692e-01dB,4.88236640926301e+01°)
1.86208713666290e+05	(-1.55877565327291e-01dB,4.91459340759083e+01°)
1.88364908948983e+05	(-9.78162107642561e-02dB,4.94675758821120e+01°)
1.90546071796328e+05	(-3.91953727825104e-02dB,4.97885481047837e+01°)
1.92752491319097e+05	(1.99827276967105e-02dB,5.01088097317748e+01°)
1.94984459975808e+05	(7.97157359992095e-02dB,5.04283201691321e+01°)
1.97242273611489e+05	(1.40001166096938e-01dB,5.07470392641481e+01°)
1.99526231496892e+05	(2.00836403042596e-01dB,5.10649273280421e+01°)
2.01836636368160e+05	(2.62218705603574e-01dB,5.13819451576220e+01°)
2.04173794466957e+05	(3.24145208935289e-01dB,5.16980540563802e+01°)
2.06538015581057e+05	(3.86612927387230e-01dB,5.20132158548304e+01°)
2.08929613085408e+05	(4.49618757383095e-01dB,5.23273929299961e+01°)
2.11348903983669e+05	(5.13159480409780e-01dB,5.26405482241140e+01°)
2.13796208950227e+05	(5.77231766073297e-01dB,5.29526452626117e+01°)
2.16271852372706e+05	(6.41832175244307e-01dB,5.32636481710844e+01°)
2.18776162394959e+05	(7.06957163240895e-01dB,5.35735216916087e+01°)
2.21309470960568e+05	(7.72603083126542e-01dB,5.38822311980181e+01°)
2.23872113856838e+05	(8.38766189033603e-01dB,5.41897427104006e+01°)
2.26464430759310e+05	(9.05442639536764e-01dB,5.44960229087307e+01°)
2.29086765276782e+05	(9.72628501092129e-01dB,5.48010391455849e+01°)
2.31739464996852e+05	(1.04031975149182e+00dB,5.51047594579477e+01°)
2.34422881531997e+05	(1.10851228338677e+00dB,5.54071525781641e+01°)
2.37137370566170e+05	(1.17720190779916e+00dB,5.57081879439552e+01°)
2.39883291901954e+05	(1.24638435768296e+00dB,5.60078357076124e+01°)
2.42661009508246e+05	(1.31605529149304e+00dB,5.63060667442296e+01°)
2.45470891568508e+05	(1.38621029676431e+00dB,5.66028526591502e+01°)
2.48313310529562e+05	(1.45684489369397e+00dB,5.68981657943309e+01°)
2.51188643150963e+05	(1.52795453873610e+00dB,5.71919792342682e+01°)
2.54097270554935e+05	(1.59953462817256e+00dB,5.74842668104094e+01°)
2.57039578276891e+05	(1.67158050167700e+00dB,5.77750031055213e+01°)
2.60015956316532e+05	(1.74408744588595e+00dB,5.80641634564398e+01°)
2.63026799189543e+05	(1.81705069791775e+00dB,5.83517239565893e+01°)
